# Hz S RI R 50
1e+08        1.00299 -0.088139 0.00699293 0.041546 0.00644705 -0.00383663 -0.00554951 0.0119555
             0.00918232 0.0291576 0.986074 -0.0797023 0.00146434 0.00284756 -0.000472408 0.00309644
             -0.000232248 0.00041957 0.000235664 0.00312297 0.99864 -0.00795178 0.000102399 -0.000109291
             0.0012316 0.00368634 0.000509318 0.00319375 0.000181806 -3.68785e-05 0.977355 -0.158957
1.0145e+08   1.0024 -0.0891862 0.00731068 0.04206 0.00640736 -0.00388181 -0.00542822 0.01209
             0.00931647 0.0295748 0.985779 -0.0808264 0.00146632 0.00288838 -0.000444749 0.0031342
             -0.000227322 0.000422693 0.000238693 0.00316852 0.998645 -0.00806849 0.000100792 -0.000110306
             0.00123875 0.00374372 0.000543244 0.00322827 0.000181529 -3.74039e-05 0.976617 -0.161133
1.029e+08    1.0018 -0.0902249 0.00763151 0.0425707 0.00636723 -0.00392656 -0.00530578 0.0122229
             0.00945266 0.0299918 0.985481 -0.0819491 0.00146833 0.00292918 -0.00041678 0.00317167
             -0.000222388 0.00042571 0.000241782 0.00321408 0.99865 -0.00818526 9.91699e-05 -0.0001113
             0.00124609 0.00380126 0.000577465 0.00326234 0.000181248 -3.79287e-05 0.975869 -0.163303
1.0435e+08   1.00121 -0.091255 0.00795537 0.0430781 0.00632667 -0.00397089 -0.00518222 0.0123543
             0.00959089 0.0304085 0.985178 -0.0830704 0.00147037 0.00296997 -0.000388505 0.00320884
             -0.000217448 0.000428618 0.00024493 0.00325964 0.998655 -0.00830209 9.75343e-05 -0.00011227
             0.00125363 0.00385894 0.000611974 0.00329595 0.000180962 -3.8453e-05 0.975112 -0.165469
1.058e+08    1.00061 -0.0922766 0.0082822 0.0435821 0.00628569 -0.00401479 -0.00505757 0.0124842
             0.00973117 0.0308249 0.984871 -0.0841902 0.00147242 0.00301073 -0.000359926 0.00324571
             -0.000212504 0.000431419 0.000248139 0.00330521 0.99866 -0.00841897 9.58851e-05 -0.000113219
             0.00126136 0.00391677 0.000646764 0.0033291 0.000180673 -3.89769e-05 0.974345 -0.167629
1.0725e+08   1 -0.0932896 0.00861195 0.0440827 0.00624429 -0.00405826 -0.00493184 0.0126125
             0.0098735 0.031241 0.98456 -0.0853085 0.0014745 0.00305148 -0.000331049 0.00328229
             -0.000207558 0.000434111 0.000251409 0.00335079 0.998666 -0.00853592 9.42227e-05 -0.000114144
             0.00126929 0.00397474 0.000681827 0.00336178 0.000180379 -3.95002e-05 0.97357 -0.169783
1.087e+08    0.999394 -0.0942939 0.00894458 0.0445798 0.00620247 -0.00410129 -0.00480506 0.0127392
             0.0100179 0.0316567 0.984245 -0.0864252 0.0014766 0.00309221 -0.000301875 0.00331857
             -0.000202614 0.000436696 0.00025474 0.00339637 0.998671 -0.00865292 9.25475e-05 -0.000115046
             0.00127742 0.00403287 0.000717157 0.003394 0.000180082 -4.0023e-05 0.972785 -0.171932
1.1015e+08   0.998783 -0.0952897 0.00928001 0.0450736 0.00616024 -0.00414388 -0.00467725 0.0128644
             0.0101643 0.0320722 0.983925 -0.0875405 0.00147873 0.00313291 -0.00027241 0.00335454
             -0.000197672 0.000439172 0.000258132 0.00344195 0.998676 -0.00876998 9.08598e-05 -0.000115926
             0.00128576 0.00409114 0.000752746 0.00342575 0.00017978 -4.05452e-05 0.971992 -0.174075
1.116e+08    0.998169 -0.0962769 0.00961821 0.0455639 0.00611761 -0.00418603 -0.00454844 0.0129879
             0.0103128 0.0324874 0.983601 -0.0886541 0.00148088 0.0031736 -0.000242656 0.0033902
             -0.000192736 0.000441541 0.000261587 0.00348754 0.998681 -0.00888711 8.91599e-05 -0.000116782
             0.0012943 0.00414957 0.000788586 0.00345703 0.000179474 -4.10669e-05 0.97119 -0.176213
1.1305e+08   0.997553 -0.0972554 0.00995912 0.0460508 0.00607459 -0.00422772 -0.00441866 0.0131099
             0.0104634 0.0329022 0.983273 -0.0897662 0.00148305 0.00321427 -0.000212617 0.00342556
             -0.000187807 0.000443801 0.000265104 0.00353313 0.998687 -0.00900429 8.74482e-05 -0.000117614
             0.00130306 0.00420814 0.000824671 0.00348783 0.000179165 -4.1588e-05 0.970378 -0.178345
1.145e+08    0.996934 -0.0982252 0.0103027 0.0465342 0.00603117 -0.00426897 -0.00428791 0.0132303
             0.010616 0.0333167 0.982941 -0.0908766 0.00148524 0.00325492 -0.000182297 0.0034606
             -0.000182888 0.000445954 0.000268685 0.00357872 0.998692 -0.00912153 8.5725e-05 -0.000118424
             0.00131204 0.00426687 0.000860993 0.00351816 0.000178851 -4.21086e-05 0.969558 -0.180471
1.1595e+08   0.996312 -0.0991865 0.0106489 0.0470142 0.00598736 -0.00430976 -0.00415623 0.013349
             0.0107707 0.0337308 0.982605 -0.0919854 0.00148745 0.00329555 -0.0001517 0.00349533
             -0.000177981 0.000447999 0.000272329 0.00362431 0.998698 -0.00923884 8.39908e-05 -0.000119209
             0.00132124 0.00432574 0.000897545 0.00354801 0.000178533 -4.26285e-05 0.968729 -0.182592
1.174e+08    0.995688 -0.100139 0.0109976 0.0474907 0.00594317 -0.00435009 -0.00402364 0.0134662
             0.0109275 0.0341446 0.982265 -0.0930926 0.00148969 0.00333616 -0.000120828 0.00352974
             -0.000173089 0.000449936 0.000276038 0.00366991 0.998703 -0.0093562 8.22458e-05 -0.000119971
             0.00133066 0.00438476 0.000934319 0.00357739 0.000178212 -4.31478e-05 0.967891 -0.184706
1.1885e+08   0.995061 -0.101083 0.0113488 0.0479637 0.00589861 -0.00438996 -0.00389017 0.0135817
             0.0110864 0.0345581 0.98192 -0.094198 0.00149195 0.00337674 -8.96872e-05 0.00356383
             -0.000168212 0.000451766 0.000279811 0.0037155 0.998709 -0.00947363 8.04903e-05 -0.000120709
             0.0013403 0.00444394 0.000971308 0.00360628 0.000177886 -4.36666e-05 0.967045 -0.186815
1.203e+08    0.994433 -0.102018 0.0117025 0.0484333 0.00585368 -0.00442937 -0.00375583 0.0136955
             0.0112473 0.0349712 0.981572 -0.0953017 0.00149423 0.00341731 -5.82796e-05 0.0035976
             -0.000163354 0.000453489 0.000283649 0.0037611 0.998715 -0.00959113 7.87249e-05 -0.000121423
             0.00135018 0.00450326 0.00100851 0.00363469 0.000177556 -4.41847e-05 0.96619 -0.188918
1.2175e+08   0.993803 -0.102945 0.0120585 0.0488993 0.00580838 -0.00446831 -0.00362066 0.0138078
             0.0114104 0.0353839 0.981219 -0.0964037 0.00149653 0.00345786 -2.66096e-05 0.00363104
             -0.000158517 0.000455106 0.000287553 0.0038067 0.99872 -0.00970868 7.69497e-05 -0.000122113
             0.00136029 0.00456273 0.0010459 0.00366262 0.000177222 -4.47021e-05 0.965326 -0.191015
1.232e+08    0.993171 -0.103863 0.0124169 0.0493619 0.00576272 -0.00450678 -0.00348467 0.0139184
             0.0115755 0.0357962 0.980862 -0.097504 0.00149885 0.00349839 5.31909e-06 0.00366416
             -0.000153703 0.000456616 0.000291522 0.0038523 0.998726 -0.0098263 7.51652e-05 -0.000122779
             0.00137064 0.00462235 0.00108349 0.00369006 0.000176884 -4.52189e-05 0.964454 -0.193106
1.2465e+08   0.992537 -0.104773 0.0127776 0.049821 0.00571671 -0.00454477 -0.00334789 0.0140273
             0.0117427 0.0362082 0.980501 -0.0986024 0.00150119 0.00353889 3.75026e-05 0.00369695
             -0.000148914 0.00045802 0.000295559 0.00389789 0.998732 -0.00994398 7.33717e-05 -0.00012342
             0.00138122 0.00468213 0.00112127 0.00371701 0.000176542 -4.5735e-05 0.963573 -0.195191
1.261e+08    0.991902 -0.105674 0.0131405 0.0502766 0.00567036 -0.00458229 -0.00321035 0.0141346
             0.011912 0.0366197 0.980135 -0.099699 0.00150355 0.00357938 6.99371e-05 0.0037294
             -0.000144152 0.000459319 0.000299662 0.00394349 0.998737 -0.0100617 7.15696e-05 -0.000124038
             0.00139205 0.00474205 0.00115923 0.00374348 0.000176196 -4.62504e-05 0.962684 -0.197269
1.2755e+08   0.991266 -0.106566 0.0135056 0.0507286 0.00562366 -0.00461933 -0.00307206 0.0142402
             0.0120835 0.0370309 0.979766 -0.100794 0.00150593 0.00361984 0.000102619 0.00376153
             -0.00013942 0.000460513 0.000303832 0.00398909 0.998743 -0.0101795 6.97593e-05 -0.00012463
             0.00140313 0.00480211 0.00119735 0.00376946 0.000175846 -4.67651e-05 0.961787 -0.199342
1.29e+08     0.990629 -0.10745 0.0138729 0.0511772 0.00557662 -0.00465588 -0.00293306 0.0143441
             0.012257 0.0374416 0.979393 -0.101887 0.00150833 0.00366029 0.000135544 0.00379332
             -0.00013472 0.000461603 0.00030807 0.00403468 0.998749 -0.0102974 6.7941e-05 -0.000125199
             0.00141446 0.00486233 0.00123564 0.00379495 0.000175492 -4.72791e-05 0.960881 -0.201408
1.3045e+08   0.98999 -0.108326 0.0142422 0.0516223 0.00552926 -0.00469196 -0.00279336 0.0144464
             0.0124327 0.0378519 0.979015 -0.102978 0.00151076 0.00370071 0.000168708 0.00382477
             -0.000130053 0.000462589 0.000312376 0.00408027 0.998755 -0.0104154 6.61152e-05 -0.000125743
             0.00142605 0.00492269 0.00127409 0.00381995 0.000175134 -4.77923e-05 0.959968 -0.203468
1.319e+08    0.989351 -0.109193 0.0146136 0.0520639 0.00548157 -0.00472754 -0.00265299 0.014547
             0.0126104 0.0382618 0.978634 -0.104067 0.0015132 0.00374111 0.000202108 0.00385588
             -0.000125422 0.000463472 0.00031675 0.00412585 0.998761 -0.0105334 6.42822e-05 -0.000126262
             0.00143789 0.0049832 0.00131268 0.00384446 0.000174772 -4.83048e-05 0.959046 -0.205522
1.3335e+08   0.988712 -0.110051 0.0149869 0.052502 0.00543356 -0.00476264 -0.00251198 0.0146459
             0.0127903 0.0386712 0.978248 -0.105154 0.00151566 0.00378149 0.000235739 0.00388665
             -0.000120829 0.000464252 0.000321194 0.00417144 0.998767 -0.0106514 6.24424e-05 -0.000126756
             0.00144999 0.00504386 0.00135142 0.00386848 0.000174406 -4.88165e-05 0.958116 -0.207569
1.348e+08    0.988071 -0.110902 0.0153622 0.0529366 0.00538525 -0.00479724 -0.00237034 0.0147432
             0.0129723 0.0390802 0.977858 -0.106239 0.00151814 0.00382185 0.000269597 0.00391708
             -0.000116276 0.000464931 0.000325706 0.00421702 0.998773 -0.0107696 6.05961e-05 -0.000127226
             0.00146236 0.00510466 0.00139029 0.00389201 0.000174036 -4.93275e-05 0.957177 -0.20961
1.3625e+08   0.987431 -0.111744 0.0157394 0.0533678 0.00533662 -0.00483135 -0.0022281 0.0148387
             0.0131564 0.0394888 0.977464 -0.107322 0.00152064 0.00386219 0.00030368 0.00394716
             -0.000111765 0.000465509 0.000330289 0.00426259 0.998779 -0.0108878 5.87436e-05 -0.000127671
             0.00147499 0.00516561 0.00142929 0.00391505 0.000173661 -4.98376e-05 0.956231 -0.211645
1.377e+08    0.98679 -0.112577 0.0161184 0.0537954 0.00528769 -0.00486496 -0.00208529 0.0149326
             0.0133427 0.0398968 0.977066 -0.108403 0.00152316 0.0039025 0.000337982 0.00397689
             -0.000107298 0.000465986 0.000334941 0.00430816 0.998785 -0.0110061 5.68855e-05 -0.000128092
             0.0014879 0.0052267 0.00146841 0.00393759 0.000173283 -5.03469e-05 0.955277 -0.213673
1.3915e+08   0.986149 -0.113403 0.0164992 0.0542196 0.00523847 -0.00489808 -0.00194194 0.0150247
             0.0135311 0.0403044 0.976664 -0.109482 0.00152569 0.0039428 0.000372499 0.00400628
             -0.000102878 0.000466364 0.000339664 0.00435372 0.998791 -0.0111244 5.50219e-05 -0.000128487
             0.00150108 0.00528793 0.00150765 0.00395965 0.000172901 -5.08554e-05 0.954316 -0.215694
1.406e+08    0.985509 -0.11422 0.0168817 0.0546403 0.00518896 -0.00493069 -0.00179805 0.0151152
             0.0137216 0.0407116 0.976258 -0.110559 0.00152825 0.00398307 0.000407228 0.00403531
             -9.85056e-05 0.000466644 0.000344457 0.00439928 0.998797 -0.0112428 5.31533e-05 -0.000128858
             0.00151454 0.00534931 0.00154698 0.00398121 0.000172514 -5.13631e-05 0.953346 -0.217709
1.4205e+08   0.984868 -0.115029 0.017266 0.0550576 0.00513917 -0.0049628 -0.00165366 0.015204
             0.0139143 0.0411182 0.975848 -0.111634 0.00153082 0.00402332 0.000442165 0.004064
             -9.41835e-05 0.000466826 0.000349322 0.00444482 0.998803 -0.0113613 5.128e-05 -0.000129204
             0.00152828 0.00541082 0.00158642 0.00400228 0.000172124 -5.18699e-05 0.952368 -0.219718
1.435e+08    0.984228 -0.11583 0.0176518 0.0554714 0.0050891 -0.0049944 -0.00150879 0.015291
             0.0141091 0.0415243 0.975434 -0.112707 0.00153342 0.00406355 0.000477305 0.00409233
             -8.99136e-05 0.000466912 0.000354258 0.00449036 0.998809 -0.0114798 4.94024e-05 -0.000129524
             0.0015423 0.00547248 0.00162595 0.00402286 0.00017173 -5.23758e-05 0.951383 -0.22172
1.4495e+08   0.983589 -0.116623 0.0180393 0.0558818 0.00503875 -0.0050255 -0.00136347 0.0153764
             0.0143061 0.0419299 0.975016 -0.113778 0.00153602 0.00410376 0.000512645 0.0041203
             -8.56978e-05 0.000466902 0.000359265 0.0045359 0.998815 -0.0115985 4.75209e-05 -0.00012982
             0.00155662 0.00553428 0.00166556 0.00404295 0.000171331 -5.28808e-05 0.950391 -0.223715
1.464e+08    0.98295 -0.117408 0.0184283 0.0562887 0.00498814 -0.00505609 -0.00121772 0.0154601
             0.0145052 0.042335 0.974594 -0.114846 0.00153865 0.00414395 0.000548181 0.00414792
             -8.15381e-05 0.000466797 0.000364345 0.00458142 0.998822 -0.0117171 4.56357e-05 -0.000130091
             0.00157123 0.00559621 0.00170525 0.00406255 0.000170929 -5.3385e-05 0.949391 -0.225703
1.4785e+08   0.982311 -0.118185 0.0188188 0.0566923 0.00493728 -0.00508617 -0.00107156 0.0155421
             0.0147065 0.0427396 0.974168 -0.115913 0.0015413 0.00418411 0.000583908 0.00417518
             -7.74363e-05 0.000466599 0.000369497 0.00462693 0.998828 -0.0118359 4.37473e-05 -0.000130338
             0.00158613 0.00565828 0.00174501 0.00408166 0.000170522 -5.38881e-05 0.948383 -0.227685
1.493e+08    0.981674 -0.118954 0.0192108 0.0570924 0.00488616 -0.00511574 -0.000925012 0.0156224
             0.0149099 0.0431436 0.973738 -0.116977 0.00154396 0.00422425 0.000619822 0.00420208
             -7.33945e-05 0.000466308 0.000374722 0.00467243 0.998834 -0.0119547 4.18559e-05 -0.000130559
             0.00160133 0.00572049 0.00178483 0.00410028 0.000170112 -5.43904e-05 0.947368 -0.22966
1.5075e+08   0.981038 -0.119716 0.0196042 0.0574891 0.00483479 -0.0051448 -0.000778106 0.015701
             0.0151155 0.0435471 0.973303 -0.118038 0.00154664 0.00426437 0.00065592 0.00422862
             -6.94143e-05 0.000465926 0.000380019 0.00471792 0.99884 -0.0120736 3.99621e-05 -0.000130755
             0.00161683 0.00578283 0.00182471 0.00411842 0.000169697 -5.48916e-05 0.946345 -0.231628
1.522e+08    0.980403 -0.120469 0.019999 0.0578825 0.00478318 -0.00517334 -0.000630862 0.0157779
             0.0153232 0.04395 0.972865 -0.119098 0.00154933 0.00430447 0.000692197 0.0042548
             -6.54977e-05 0.000465454 0.000385389 0.0047634 0.998847 -0.0121926 3.8066e-05 -0.000130926
             0.00163264 0.00584531 0.00186464 0.00413607 0.000169279 -5.53919e-05 0.945315 -0.23359
1.5365e+08   0.97977 -0.121216 0.0203951 0.0582724 0.00473133 -0.00520136 -0.000483305 0.0158531
             0.0155331 0.0443523 0.972423 -0.120155 0.00155204 0.00434455 0.000728649 0.00428062
             -6.16465e-05 0.000464893 0.000390833 0.00480887 0.998853 -0.0123116 3.61681e-05 -0.000131073
             0.00164876 0.00590791 0.00190461 0.00415323 0.000168856 -5.58912e-05 0.944278 -0.235544
1.551e+08    0.979138 -0.121954 0.0207924 0.0586591 0.00467925 -0.00522887 -0.000335457 0.0159266
             0.0157452 0.044754 0.971977 -0.12121 0.00155477 0.0043846 0.000765272 0.00430607
             -5.78625e-05 0.000464245 0.000396351 0.00485432 0.998859 -0.0124307 3.42687e-05 -0.000131195
             0.00166519 0.00597065 0.00194462 0.00416991 0.00016843 -5.63895e-05 0.943234 -0.237492
1.5655e+08   0.978507 -0.122685 0.0211911 0.0590424 0.00462695 -0.00525586 -0.000187342 0.0159985
             0.0159595 0.0451552 0.971527 -0.122262 0.00155752 0.00442464 0.000802062 0.00433115
             -5.41474e-05 0.000463509 0.000401942 0.00489976 0.998866 -0.0125499 3.23681e-05 -0.000131292
             0.00168194 0.00603351 0.00198466 0.00418611 0.000167999 -5.68867e-05 0.942183 -0.239432
1.58e+08     0.977878 -0.123409 0.0215909 0.0594223 0.00457443 -0.00528233 -3.8982e-05 0.0160686
             0.0161759 0.0455558 0.971074 -0.123313 0.00156028 0.00446465 0.000839015 0.00435587
             -5.05029e-05 0.000462689 0.000407607 0.00494519 0.998872 -0.0126691 3.04668e-05 -0.000131364
             0.001699 0.0060965 0.00202472 0.00420182 0.000167565 -5.73829e-05 0.941124 -0.241366
1.5945e+08   0.977251 -0.124125 0.0219918 0.059799 0.0045217 -0.00530828 0.0001096 0.0161371
             0.0163945 0.0459557 0.970616 -0.12436 0.00156305 0.00450463 0.000876127 0.00438022
             -4.69309e-05 0.000461785 0.000413347 0.0049906 0.998878 -0.0127884 2.85649e-05 -0.000131411
             0.00171639 0.00615962 0.00206479 0.00421706 0.000167126 -5.7878e-05 0.940059 -0.243293
1.609e+08    0.976626 -0.124835 0.0223939 0.0601724 0.00446876 -0.0053337 0.00025838 0.0162038
             0.0166153 0.046355 0.970154 -0.125405 0.00156584 0.0045446 0.000913394 0.0044042
             -4.34329e-05 0.000460798 0.000419161 0.00503599 0.998885 -0.0129078 2.6663e-05 -0.000131434
             0.0017341 0.00622286 0.00210487 0.00423181 0.000166683 -5.83721e-05 0.938987 -0.245212
1.6235e+08   0.976003 -0.125537 0.0227971 0.0605425 0.00441562 -0.00535861 0.000407337 0.0162689
             0.0168383 0.0467537 0.969689 -0.126448 0.00156865 0.00458454 0.000950811 0.00442781
             -4.00106e-05 0.000459731 0.00042505 0.00508137 0.998891 -0.0130272 2.47613e-05 -0.000131432
             0.00175215 0.00628622 0.00214496 0.0042461 0.000166237 -5.8865e-05 0.937907 -0.247125
1.638e+08    0.975383 -0.126232 0.0232013 0.0609094 0.00436229 -0.00538298 0.000556448 0.0163324
             0.0170635 0.0471518 0.969219 -0.127489 0.00157147 0.00462447 0.000988375 0.00445105
             -3.66657e-05 0.000458583 0.000431013 0.00512673 0.998897 -0.0131468 2.28602e-05 -0.000131405
             0.00177052 0.0063497 0.00218504 0.0042599 0.000165786 -5.93568e-05 0.936821 -0.24903
1.6525e+08   0.974764 -0.12692 0.0236065 0.061273 0.00430876 -0.00540684 0.00070569 0.0163941
             0.0172908 0.0475491 0.968746 -0.128526 0.00157431 0.00466437 0.00102608 0.00447392
             -3.33997e-05 0.000457358 0.000437052 0.00517207 0.998904 -0.0132664 2.096e-05 -0.000131354
             0.00178923 0.0064133 0.00222511 0.00427324 0.000165332 -5.98474e-05 0.935728 -0.250929
1.667e+08    0.974148 -0.127601 0.0240126 0.0616334 0.00425506 -0.00543017 0.00085504 0.0164542
             0.0175203 0.0479459 0.968269 -0.129562 0.00157716 0.00470424 0.00106393 0.00449641
             -3.02142e-05 0.000456056 0.000443165 0.00521739 0.99891 -0.013386 1.90611e-05 -0.000131279
             0.00180827 0.00647701 0.00226516 0.0042861 0.000164873 -6.03369e-05 0.934629 -0.25282
1.6815e+08   0.973535 -0.128275 0.0244197 0.0619907 0.00420118 -0.00545297 0.00100448 0.0165127
             0.0177521 0.0483419 0.967788 -0.130594 0.00158003 0.0047441 0.0011019 0.00451853
             -2.71108e-05 0.000454678 0.000449354 0.00526269 0.998917 -0.0135058 1.71637e-05 -0.000131179
             0.00182766 0.00654084 0.00230519 0.00429849 0.00016441 -6.08252e-05 0.933523 -0.254704
1.696e+08    0.972924 -0.128943 0.0248277 0.0623447 0.00414712 -0.00547525 0.00115398 0.0165694
             0.017986 0.0487372 0.967303 -0.131624 0.00158291 0.00478393 0.00114001 0.00454028
             -2.40908e-05 0.000453227 0.000455618 0.00530797 0.998923 -0.0136256 1.52683e-05 -0.000131055
             0.0018474 0.00660479 0.00234519 0.00431042 0.000163944 -6.13123e-05 0.93241 -0.256581
1.7105e+08   0.972316 -0.129604 0.0252365 0.0626957 0.0040929 -0.005497 0.00130353 0.0166246
             0.0182222 0.0491319 0.966815 -0.132652 0.0015858 0.00482375 0.00117825 0.00456166
             -2.11559e-05 0.000451704 0.000461957 0.00535323 0.99893 -0.0137454 1.33751e-05 -0.000130906
             0.00186748 0.00666884 0.00238515 0.00432188 0.000163473 -6.17982e-05 0.931291 -0.258451
