# Hz S RI R 50
1e+08        0.987086 -0.075145 0.0146367 0.0604866 -0.0001367 8.93273e-05 -0.00052107 0.00431577
             0.0146815 0.0605833 0.982087 -0.0887861 0.000231625 0.00408783 0.00144184 0.00583862
             -0.000132132 0.000102455 0.000253275 0.0040618 0.999921 -0.00946179 -1.07276e-05 2.96646e-05
             -0.000323917 0.0044115 0.00142693 0.00578739 -1.09344e-05 2.53982e-05 0.987693 -0.146043
1.0145e+08   0.987249 -0.0755041 0.0154169 0.0614128 -0.000150008 9.9569e-05 -0.000341834 0.00476962
             0.0152348 0.0613372 0.981953 -0.0901296 0.000271131 0.00412683 0.00145042 0.00582671
             -0.00014717 9.48387e-05 0.000230366 0.00412044 0.999869 -0.00957232 -1.20559e-05 2.79324e-05
             -0.000291247 0.00455279 0.00142282 0.00589022 -1.59891e-05 2.84944e-05 0.986854 -0.148999
1.029e+08    0.986351 -0.0771717 0.0154863 0.0620501 -0.000145322 0.00011067 -8.24708e-05 0.00450994
             0.0155162 0.0621889 0.981093 -0.0912001 0.000255952 0.0041532 0.00142215 0.00596529
             -0.000139514 0.000106934 0.000265522 0.00417976 0.999898 -0.00966047 -1.39658e-05 3.03094e-05
             -0.000343969 0.00455565 0.00150641 0.00594108 -1.33362e-05 3.34698e-05 0.985977 -0.15027
1.0435e+08   0.986548 -0.0775625 0.016249 0.0630355 -0.000141372 0.00010395 -0.000500378 0.0044741
             0.0160772 0.0629233 0.980967 -0.092475 0.000232837 0.00423453 0.00154607 0.00607482
             -0.000155395 0.000100197 0.000243194 0.00423314 0.999942 -0.0098309 -1.19519e-05 3.15143e-05
             -0.00030692 0.00469473 0.0014991 0.006036 -9.4541e-06 3.0693e-05 0.986627 -0.15221
1.058e+08    0.9856 -0.0791865 0.0163627 0.0636033 -0.000155312 9.94189e-05 -0.000440501 0.00496507
             0.0163722 0.0637816 0.980081 -0.0936002 0.000265549 0.0043195 0.00158297 0.00605708
             -0.000147141 0.000111683 0.000277599 0.00429744 0.999903 -0.0100105 -1.25994e-05 2.96384e-05
             -0.000363991 0.00470113 0.00158709 0.00609374 -1.34428e-05 2.72939e-05 0.986042 -0.155272
1.0725e+08   0.98583 -0.0796119 0.0170959 0.0646417 -0.00016541 0.000112615 -9.74085e-05 0.00479906
             0.0169394 0.0644965 0.97995 -0.0948037 0.000296774 0.00434821 0.00154016 0.00617202
             -0.00016353 0.000105792 0.000256787 0.00434581 0.999862 -0.0101053 -1.49496e-05 3.14914e-05
             -0.000322674 0.00483753 0.00157779 0.00618004 -1.73178e-05 3.18428e-05 0.984938 -0.156738
1.087e+08    0.984833 -0.0811898 0.0172649 0.0651472 -0.000158461 0.000120325 -0.00046607 0.00465117
             0.0172491 0.065361 0.97905 -0.0959844 0.000272748 0.00438365 0.00165147 0.00630387
             -0.000154957 0.000116329 0.00028963 0.00441469 0.999905 -0.0102067 -1.32165e-05 3.3321e-05
             -0.000384178 0.00484773 0.00166878 0.00624519 -1.33624e-05 3.55393e-05 0.985485 -0.158405
1.1015e+08   0.985092 -0.0816524 0.0179582 0.0662303 -0.000158403 0.000111606 -0.000530275 0.00514318
             0.0178211 0.0660568 0.978905 -0.0971162 0.000259844 0.00447322 0.00171685 0.00628849
             -0.000172007 0.000111599 0.000270968 0.00445833 0.999936 -0.0103905 -1.31624e-05 3.1438e-05
             -0.000338691 0.00498147 0.00165888 0.0063226 -1.0866e-05 3.15519e-05 0.985172 -0.161492
1.116e+08    0.984049 -0.0831816 0.0181919 0.0666822 -0.000174355 0.000111189 -0.000134341 0.00509113
             0.0181469 0.066927 0.978001 -0.098352 0.00030049 0.0045472 0.00166696 0.00637602
             -0.000162927 0.000121243 0.000301433 0.00453165 0.999884 -0.0105545 -1.58227e-05 3.2624e-05
             -0.000404235 0.0049955 0.00175161 0.00639528 -1.5971e-05 2.96504e-05 0.983909 -0.163204
1.1305e+08   0.984334 -0.0836832 0.0188363 0.0678003 -0.000180544 0.000125953 -0.000423285 0.00485046
             0.0187224 0.0676034 0.977832 -0.0994133 0.000320553 0.0045692 0.00175931 0.006525
             -0.000180614 0.00011753 0.000285977 0.004571 0.99986 -0.010639 -1.45821e-05 3.49701e-05
             -0.000355162 0.00512634 0.00174232 0.00646359 -1.8278e-05 3.51369e-05 0.98428 -0.164636
1.145e+08    0.98325 -0.0851605 0.019143 0.0682093 -0.000172771 0.00012971 -0.000605488 0.00530777
             0.0190646 0.0684787 0.976934 -0.100701 0.000291347 0.00461616 0.00185081 0.0065198
             -0.000171178 0.000126411 0.000313256 0.00464786 0.999912 -0.0107577 -1.38966e-05 3.32954e-05
             -0.00042435 0.00514484 0.00183552 0.00654399 -1.35691e-05 3.72022e-05 0.984233 -0.167666
1.1595e+08   0.983559 -0.0857038 0.0197315 0.06935 -0.000177128 0.000120514 -0.000192101 0.00537966
             0.0196424 0.0691368 0.976731 -0.101695 0.000290846 0.00471009 0.00180204 0.00657867
             -0.000189214 0.000123752 0.00030126 0.00468364 0.999924 -0.0109491 -1.66982e-05 3.37921e-05
             -0.000371643 0.00527232 0.0018283 0.00660296 -1.28106e-05 3.25737e-05 0.982888 -0.169655
1.174e+08    0.982436 -0.0871276 0.0201158 0.0697281 -0.000193505 0.000124659 -0.000377956 0.00507328
             0.0200026 0.0700166 0.975849 -0.103032 0.000335192 0.00477122 0.001871 0.00673797
             -0.000179486 0.000131632 0.00032491 0.00476385 0.999867 -0.0110944 -1.60879e-05 3.65554e-05
             -0.000444384 0.00529546 0.00192024 0.00669083 -1.84456e-05 3.24875e-05 0.983023 -0.170908
1.1885e+08   0.982765 -0.0877147 0.0206437 0.0708796 -0.00019549 0.000139461 -0.000662414 0.00546386
             0.0205816 0.0706565 0.975603 -0.103963 0.000342704 0.00479088 0.0019841 0.00674955
             -0.000198002 0.000129966 0.000317352 0.0047966 0.999862 -0.0111746 -1.48281e-05 3.53141e-05
             -0.000388246 0.00541942 0.0019164 0.00674104 -1.89515e-05 3.83308e-05 0.983214 -0.173804
1.203e+08    0.981607 -0.0890826 0.0211095 0.0712393 -0.000188339 0.000139127 -0.000268115 0.00565909
             0.0209605 0.0715397 0.974746 -0.105342 0.000312677 0.00485045 0.00194451 0.00678094
             -0.000188216 0.000137056 0.000336775 0.00487906 0.999916 -0.0113123 -1.75237e-05 3.5135e-05
             -0.000464299 0.00544736 0.00200592 0.006836 -1.40671e-05 3.86042e-05 0.98187 -0.176076
1.2175e+08   0.981953 -0.0897148 0.0215744 0.0723882 -0.000197087 0.000130915 -0.000336067 0.00531978
             0.0215391 0.0721621 0.974448 -0.106216 0.000325415 0.00494429 0.00198772 0.00694275
             -0.000206866 0.000136543 0.000333807 0.00490955 0.999909 -0.0115049 -1.76001e-05 3.81347e-05
             -0.000405007 0.0055677 0.0020068 0.00687784 -1.51605e-05 3.39441e-05 0.98173 -0.177221
1.232e+08    0.980763 -0.0910252 0.0221226 0.0727429 -0.000212385 0.000139395 -0.000698523 0.00561747
             0.0219377 0.0730483 0.973625 -0.10763 0.000368889 0.00499219 0.00211608 0.0069761
             -0.000197109 0.000142579 0.00034857 0.00499363 0.999852 -0.0116306 -1.5848e-05 3.74767e-05
             -0.000483948 0.00560058 0.00209259 0.00697921 -2.06908e-05 3.57264e-05 0.982108 -0.179918
1.2465e+08   0.981122 -0.0917043 0.0225244 0.0738756 -0.000210564 0.000152756 -0.000357934 0.00592467
             0.0225152 0.0736538 0.973269 -0.108455 0.000363985 0.005014 0.00209274 0.00698365
             -0.000215943 0.000143442 0.000350569 0.00502285 0.999866 -0.0117134 -1.81804e-05 3.66117e-05
             -0.000421943 0.005717 0.00209932 0.00701338 -1.94155e-05 4.13083e-05 0.980848 -0.182456
1.261e+08    0.979904 -0.0929553 0.0231534 0.0742384 -0.000205493 0.000148814 -0.000303363 0.00558813
             0.0229341 0.0745417 0.972486 -0.109897 0.000337523 0.00508573 0.00211016 0.00714024
             -0.000205974 0.000148347 0.000360634 0.00510767 0.999916 -0.0118698 -1.90213e-05 3.95326e-05
             -0.000503498 0.00575526 0.00218021 0.00712039 -1.49664e-05 3.98681e-05 0.980413 -0.183572
1.2755e+08   0.980274 -0.0936826 0.0234946 0.0753416 -0.00021806 0.000143051 -0.000713218 0.00577492
             0.0235095 0.075131 0.972065 -0.11068 0.000362741 0.00517504 0.00224673 0.0071987
             -0.000225148 0.000150334 0.00036775 0.00513634 0.99989 -0.0120569 -1.7081e-05 3.95644e-05
             -0.000438825 0.0058675 0.00219389 0.00714779 -1.77806e-05 3.58202e-05 0.980914 -0.186022
1.29e+08     0.979031 -0.0948731 0.0242004 0.0757254 -0.000230889 0.000155157 -0.0004559 0.00617316
             0.0239494 0.0760196 0.971328 -0.11214 0.000401001 0.00521096 0.002246 0.00718777
             -0.00021515 0.000154378 0.000372981 0.005221 0.999841 -0.0121646 -1.8914e-05 3.82412e-05
             -0.000522843 0.00591114 0.00226886 0.00725942 -2.25474e-05 3.92916e-05 0.979809 -0.188785
1.3045e+08   0.979407 -0.0956496 0.0244858 0.0767865 -0.000226087 0.000165824 -0.000284825 0.00587484
             0.0245216 0.0765939 0.970838 -0.112892 0.000385334 0.00523897 0.00224003 0.00733097
             -0.000234384 0.0001575 0.000385202 0.00525001 0.999872 -0.0122561 -2.04164e-05 4.09114e-05
             -0.000455909 0.00601925 0.0022904 0.0072811 -1.96916e-05 4.39926e-05 0.979084 -0.189955
1.319e+08    0.978145 -0.0967784 0.0252623 0.077203 -0.000224277 0.000159198 -0.000707788 0.00594232
             0.0249831 0.077482 0.97015 -0.11436 0.000366363 0.00532091 0.00237657 0.0074152
             -0.000224392 0.000160573 0.000385642 0.0053336 0.999912 -0.0124288 -1.84849e-05 4.16291e-05
             -0.000541867 0.00606845 0.00235861 0.00739617 -1.62469e-05 4.10594e-05 0.979633 -0.19213
1.3335e+08   0.978523 -0.0976048 0.0254989 0.0782105 -0.000239614 0.000157029 -0.000555708 0.00640317
             0.0255513 0.0780421 0.969589 -0.115091 0.000401737 0.00540178 0.00240228 0.00739297
             -0.000243702 0.00016467 0.00040277 0.00536386 0.99987 -0.0126044 -1.97697e-05 4.00336e-05
             -0.000473044 0.00617217 0.00238872 0.00741334 -2.04954e-05 3.81561e-05 0.97874 -0.195059
1.348e+08    0.977244 -0.0986713 0.0263376 0.0786704 -0.000248944 0.000171605 -0.000284198 0.00617519
             0.0260352 0.0789285 0.968953 -0.116557 0.000431108 0.00542841 0.00237755 0.0075162
             -0.000234026 0.000166902 0.000398665 0.00544553 0.999834 -0.0126978 -2.18433e-05 4.23791e-05
             -0.00056067 0.0062272 0.00244947 0.00753055 -2.40052e-05 4.29438e-05 0.977754 -0.196359
1.3625e+08   0.977622 -0.099548 0.0265345 0.0796143 -0.000242375 0.000178695 -0.000685107 0.0061251
             0.0265984 0.0794753 0.968319 -0.117276 0.000407565 0.00546592 0.00250627 0.00762468
             -0.000253208 0.000172192 0.00042035 0.00547794 0.999877 -0.0128034 -2.00222e-05 4.3836e-05
             -0.000490101 0.00632642 0.00248866 0.00754458 -1.99904e-05 4.62998e-05 0.978271 -0.198255
1.377e+08    0.976331 -0.100552 0.0274252 0.0801264 -0.000244623 0.000170668 -0.000650889 0.00661517
             0.027105 0.0803589 0.967734 -0.118729 0.000399143 0.00555497 0.00256019 0.00759899
             -0.000243775 0.000173509 0.000412249 0.00555692 0.999903 -0.012988 -2.0582e-05 4.2122e-05
             -0.000579059 0.00638727 0.00254158 0.00766258 -1.80067e-05 4.23167e-05 0.977626 -0.201277
1.3915e+08   0.976703 -0.101479 0.027593 0.0809984 -0.000261347 0.000172801 -0.000303681 0.00648348
             0.0276627 0.0808935 0.96703 -0.119446 0.000441196 0.00562456 0.00252309 0.00769712
             -0.000262778 0.000179917 0.00043801 0.00559209 0.999851 -0.0131476 -2.30533e-05 4.3905e-05
             -0.000507132 0.0064819 0.00259017 0.00767482 -2.32181e-05 4.09873e-05 0.976429 -0.202772
1.406e+08    0.975404 -0.102419 0.028524 0.0815698 -0.000266624 0.000188419 -0.000649457 0.00632753
             0.0281924 0.0817728 0.966495 -0.120876 0.000459222 0.00564565 0.00263683 0.00782605
             -0.000253679 0.000180322 0.000426361 0.00566764 0.99983 -0.0132321 -2.15733e-05 4.59759e-05
             -0.000597085 0.00654865 0.002635 0.00779209 -2.51145e-05 4.65944e-05 0.976835 -0.204406
1.4205e+08   0.975768 -0.103397 0.0286749 0.0823638 -0.000259714 0.000191525 -0.000735489 0.00681153
             0.0287438 0.0822965 0.965722 -0.121603 0.000431618 0.00569476 0.00271816 0.00780493
             -0.000272441 0.000187854 0.000455519 0.00570624 0.999882 -0.0133549 -2.14377e-05 4.43572e-05
             -0.000524213 0.00663865 0.00269296 0.00780406 -2.04584e-05 4.83209e-05 0.976454 -0.207442
1.435e+08    0.974464 -0.104274 0.0296334 0.0829992 -0.000266319 0.000183569 -0.000343713 0.00679366
             0.0292969 0.0831703 0.965235 -0.123 0.000435576 0.00578696 0.00267623 0.00787518
             -0.000263706 0.000187332 0.000440986 0.00577792 0.999889 -0.0135457 -2.4112e-05 4.55043e-05
             -0.000614775 0.00671146 0.00272984 0.00791922 -2.01788e-05 4.38493e-05 0.975111 -0.209179
1.4495e+08   0.974816 -0.105303 0.0297803 0.0837114 -0.000282903 0.000190168 -0.000606024 0.00655248
             0.0298418 0.0836841 0.964398 -0.123744 0.000480102 0.00584382 0.00276936 0.00801899
             -0.000282281 0.000195966 0.000472981 0.00582042 0.999832 -0.0136867 -2.31009e-05 4.80453e-05
             -0.000541217 0.00679682 0.00279703 0.00793223 -2.57398e-05 4.42981e-05 0.975339 -0.210591
1.464e+08    0.973511 -0.106117 0.0307526 0.0844133 -0.000284128 0.000205317 -0.000804445 0.00699612
             0.0304182 0.0845509 0.963953 -0.125099 0.000485797 0.00586367 0.00287521 0.00800985
             -0.000273856 0.000194744 0.000456206 0.00588765 0.999831 -0.0137685 -2.23248e-05 4.66681e-05
             -0.000631922 0.00687568 0.00282615 0.00804383 -2.58654e-05 5.00968e-05 0.975213 -0.213562
1.4785e+08   0.973847 -0.107195 0.0309089 0.0850423 -0.000278354 0.000204566 -0.000402939 0.00709964
             0.0309561 0.085056 0.963057 -0.125869 0.000458415 0.00592504 0.00283653 0.00805163
             -0.000291969 0.00020418 0.000490165 0.00593455 0.999883 -0.0139101 -2.50458e-05 4.71114e-05
             -0.000558091 0.00695623 0.00290215 0.00805932 -2.11832e-05 5.00725e-05 0.973801 -0.215568
1.493e+08    0.972546 -0.107947 0.0318814 0.0858105 -0.000289081 0.000198178 -0.00056066 0.00680119
             0.0315558 0.0859145 0.962648 -0.127174 0.000475122 0.00601602 0.00290518 0.00820325
             -0.000284264 0.000202161 0.000472029 0.00599708 0.999872 -0.0141005 -2.46716e-05 4.99695e-05
             -0.00064873 0.00704127 0.00292399 0.00816593 -2.26892e-05 4.57278e-05 0.973794 -0.216814
1.5075e+08   0.972862 -0.109074 0.0320606 0.0863575 -0.000304036 0.000208864 -0.000854133 0.00717413
             0.0320865 0.0864122 0.961701 -0.127979 0.000517694 0.00606022 0.00303052 0.00821234
             -0.000301868 0.000212659 0.000507167 0.00604858 0.999817 -0.0142228 -2.33886e-05 4.90444e-05
             -0.000574807 0.00711715 0.00300807 0.0081853 -2.79825e-05 4.79672e-05 0.973892 -0.219646
1.522e+08    0.971569 -0.109764 0.0330196 0.0871895 -0.000301725 0.000222144 -0.000478212 0.00739606
             0.0327095 0.087261 0.961321 -0.129227 0.000511563 0.00608312 0.00300294 0.00822759
             -0.000294809 0.000209816 0.000488486 0.00610623 0.999834 -0.0143084 -2.59505e-05 4.88522e-05
             -0.000664938 0.00720818 0.00302348 0.00828571 -2.63987e-05 5.33562e-05 0.972491 -0.221924
1.5365e+08   0.971861 -0.110939 0.0332348 0.0876581 -0.000298423 0.000218161 -0.000519204 0.00707311
             0.033233 0.0877526 0.960331 -0.130071 0.000488585 0.00615593 0.00304552 0.00837914
             -0.000311917 0.000221375 0.000523971 0.00616244 0.99988 -0.0144679 -2.62479e-05 5.18661e-05
             -0.000591455 0.00727944 0.00311481 0.00831006 -2.22868e-05 5.16918e-05 0.972213 -0.223075
1.551e+08    0.97058 -0.111568 0.0341674 0.088549 -0.000312521 0.000214657 -0.000882573 0.00735145
             0.033879 0.0885902 0.959972 -0.131256 0.000516861 0.0062415 0.00318374 0.00841094
             -0.000305429 0.000217776 0.00050563 0.00621512 0.999851 -0.0146516 -2.45666e-05 5.15249e-05
             -0.000680561 0.00737658 0.00312464 0.0084031 -2.54258e-05 4.80812e-05 0.972486 -0.225708
1.5655e+08   0.970845 -0.11279 0.0344307 0.0889451 -0.000324603 0.00022855 -0.000564941 0.00767865
             0.0343951 0.0890769 0.958948 -0.132144 0.000553373 0.00627466 0.00317413 0.00840384
             -0.000322005 0.000230235 0.000540449 0.00627597 0.999805 -0.0147571 -2.67657e-05 5.07411e-05
             -0.000607796 0.00744307 0.00322213 0.00843351 -2.98626e-05 5.19078e-05 0.971174 -0.228237
1.58e+08     0.969579 -0.11336 0.0353249 0.0898875 -0.000319726 0.000238839 -0.000487113 0.00736604
             0.0350639 0.0899018 0.958601 -0.133263 0.000537344 0.00630447 0.00319146 0.00854738
             -0.000316177 0.000225936 0.000523312 0.00632401 0.999837 -0.0148525 -2.77782e-05 5.368e-05
             -0.000695692 0.00754626 0.00322754 0.00851824 -2.68226e-05 5.63465e-05 0.970611 -0.229371
1.5945e+08   0.969813 -0.114627 0.0356473 0.0902193 -0.000319934 0.000232673 -0.000889601 0.00753417
             0.0355728 0.0903848 0.957552 -0.134199 0.000522429 0.00638654 0.00333505 0.00860424
             -0.000332234 0.00023919 0.000556844 0.00638919 0.999873 -0.015027 -2.59298e-05 5.40474e-05
             -0.000624004 0.00760821 0.00332996 0.00855552 -2.37963e-05 5.33453e-05 0.970993 -0.23176
1.609e+08    0.968566 -0.11514 0.0364927 0.0912042 -0.000336248 0.000233024 -0.000657507 0.00794467
             0.0362637 0.0911956 0.957207 -0.135248 0.000559742 0.00646319 0.00334873 0.00858067
             -0.000327236 0.000234408 0.000541526 0.00643277 0.99983 -0.0151985 -2.75869e-05 5.28835e-05
             -0.000710178 0.00771744 0.00333218 0.00863119 -2.82114e-05 5.09824e-05 0.969838 -0.234499
1.6235e+08   0.968767 -0.116449 0.0368836 0.0914816 -0.000344617 0.000248883 -0.000468952 0.00767627
             0.0367654 0.0916763 0.956144 -0.136233 0.000586932 0.00648821 0.00334378 0.00870878
             -0.000342499 0.000248551 0.000572999 0.00650213 0.999796 -0.015291 -2.91737e-05 5.55621e-05
             -0.000639804 0.00777478 0.00343817 0.00867603 -3.13108e-05 5.60032e-05 0.968998 -0.235694
1.638e+08    0.967542 -0.116907 0.0376715 0.0924978 -0.000338459 0.00025549 -0.000876769 0.00772812
             0.037478 0.0924719 0.955792 -0.137212 0.000564087 0.00652789 0.00348475 0.00879087
             -0.000338247 0.000243126 0.000560372 0.00654159 0.99984 -0.0154008 -2.73185e-05 5.66047e-05
             -0.000724061 0.00788982 0.00343863 0.00874208 -2.72297e-05 5.9075e-05 0.969416 -0.237815
1.6525e+08   0.967705 -0.118257 0.038138 0.0927325 -0.000342769 0.000248496 -0.000749729 0.00819316
             0.037973 0.0929514 0.954724 -0.138247 0.000559931 0.00661601 0.0035251 0.00875817
             -0.000352814 0.00025801 0.000588941 0.00661462 0.99986 -0.0155857 -2.83549e-05 5.52014e-05
             -0.000655464 0.00794287 0.00354677 0.00879482 -2.56634e-05 5.52018e-05 0.96847 -0.240706
1.667e+08    0.966506 -0.118661 0.0388619 0.0937678 -0.000359855 0.000253199 -0.000468015 0.00799895
             0.0387068 0.0937302 0.954355 -0.139156 0.000602732 0.00668137 0.00350307 0.00886464
             -0.000349405 0.000252053 0.000579726 0.00665069 0.999808 -0.015741 -3.04122e-05 5.74681e-05
             -0.000737268 0.00806373 0.00354685 0.00885089 -3.08298e-05 5.44506e-05 0.967383 -0.242033
1.6815e+08   0.966629 -0.12005 0.0394092 0.0939726 -0.000364147 0.000269557 -0.000847169 0.00793835
             0.0391954 0.0942095 0.953294 -0.140238 0.000618614 0.00670211 0.00363377 0.00896967
             -0.000363254 0.000267671 0.000604996 0.0067267 0.999791 -0.015826 -2.87217e-05 5.915e-05
             -0.000670633 0.00811246 0.00365553 0.00891175 -3.22534e-05 6.01385e-05 0.967761 -0.243886
1.696e+08    0.965459 -0.120402 0.040065 0.0950136 -0.000358147 0.000272249 -0.000835413 0.00842495
             0.0399494 0.0949706 0.952898 -0.14108 0.000592883 0.00675342 0.00370173 0.00893571
             -0.00036066 0.000261297 0.000599584 0.0067599 0.999841 -0.015953 -2.90921e-05 5.76812e-05
             -0.000749773 0.00823888 0.00365676 0.00895783 -2.76234e-05 6.15813e-05 0.967056 -0.246857
1.7105e+08   0.965539 -0.121827 0.0406956 0.095202 -0.000366667 0.000265882 -0.000486019 0.00832841
