# Hz S RI R 50
1e+08        0.991713 -0.0801402 0.00877692 0.0576664 0.000782208 -0.000955523 0.00252928 -0.000514826
             0.00967146 0.0582638 0.98807 -0.0976932 -0.000756142 0.00426437 -0.00141551 0.00589739
             -9.7824e-05 9.21737e-05 0.000175741 0.00306914 0.999893 -0.0106864 1.90852e-05 -2.72167e-05
             6.07621e-05 0.00330992 0.000438726 0.0027878 -5.77284e-05 7.03616e-05 0.992573 -0.105445
1.0145e+08   0.991198 -0.0799211 0.00909139 0.0598845 0.000765974 -0.000964125 0.00247773 -0.00049914
             0.00975168 0.0593235 0.987709 -0.0990957 -0.000734719 0.00431946 -0.00135617 0.00596041
             -8.73547e-05 4.23891e-05 0.000177662 0.00312433 0.999891 -0.010841 1.82032e-05 -2.72217e-05
             0.000158385 0.00292626 0.000424638 0.00283907 -5.72198e-05 7.12264e-05 0.992404 -0.106965
1.029e+08    0.991121 -0.082476 0.0107153 0.0611048 0.000749579 -0.000972516 0.0024258 -0.000482541
             0.0102244 0.0599314 0.987354 -0.10047 -0.000713087 0.00437428 -0.00129634 0.00602255
             -9.96062e-05 9.56459e-05 0.000192431 0.00317455 0.999889 -0.0109956 1.73157e-05 -2.72119e-05
             9.36821e-05 0.00340872 0.000441125 0.00290563 -5.67058e-05 7.20848e-05 0.992233 -0.108485
1.0435e+08   0.990784 -0.0822371 0.0117631 0.0607823 0.000733025 -0.000980694 0.00237349 -0.000465021
             0.01034 0.0610144 0.987024 -0.101845 -0.00069125 0.00442883 -0.00123604 0.00608381
             -9.63229e-05 4.48112e-05 0.000206261 0.00321103 0.999887 -0.0111502 1.64229e-05 -2.71873e-05
             0.000133447 0.00301731 0.000481774 0.00294723 -5.61865e-05 7.29369e-05 0.992059 -0.110005
1.058e+08    0.990513 -0.0848007 0.0111877 0.0605625 0.000716315 -0.000988659 0.00232083 -0.000446573
             0.0107932 0.0615995 0.986696 -0.103248 -0.000669212 0.00448311 -0.00117528 0.00614417
             -0.000101614 9.89899e-05 0.000206911 0.00324443 0.999885 -0.0113048 1.55253e-05 -2.71479e-05
             0.000126886 0.0035041 0.000506048 0.00295835 -5.56621e-05 7.37825e-05 0.991883 -0.111524
1.0725e+08   0.990355 -0.0845669 0.0102211 0.0619061 0.000699451 -0.000996407 0.00226783 -0.00042719
             0.0109469 0.0627024 0.986336 -0.104666 -0.000646976 0.00453712 -0.00111406 0.00620364
             -0.00010532 4.78505e-05 0.000200694 0.00328933 0.999883 -0.0114593 1.4623e-05 -2.70937e-05
             0.000108592 0.0031127 0.000496464 0.00297553 -5.51324e-05 7.46215e-05 0.991705 -0.113043
1.087e+08    0.98989 -0.0871143 0.0106261 0.0641128 0.000682437 -0.00100394 0.0022145 -0.000406867
             0.0113778 0.0632681 0.985949 -0.106063 -0.000624548 0.00459085 -0.00105242 0.0062622
             -0.000103741 0.000101975 0.000203339 0.00334443 0.999881 -0.0116139 1.37163e-05 -2.70245e-05
             0.00016014 0.00359612 0.000481995 0.00302722 -5.45978e-05 7.5454e-05 0.991524 -0.114562
1.1015e+08   0.989908 -0.0869103 0.0122821 0.0652621 0.000665276 -0.00101125 0.00216086 -0.000385596
             0.0115723 0.0643872 0.98557 -0.107431 -0.00060193 0.00464431 -0.000990349 0.00631986
             -0.000114265 5.13992e-05 0.000218615 0.00339419 0.999879 -0.0117684 1.28054e-05 -2.69403e-05
             8.46135e-05 0.00321225 0.000499753 0.00309453 -5.40582e-05 7.62797e-05 0.991341 -0.11608
1.116e+08    0.989254 -0.0894171 0.0132893 0.0649084 0.00064797 -0.00101834 0.00210692 -0.000363371
             0.0119785 0.0649373 0.985216 -0.108801 -0.000579126 0.00469749 -0.000927876 0.0063766
             -0.000106133 0.000104325 0.000232547 0.00343031 0.999877 -0.0119229 1.18907e-05 -2.68411e-05
             0.000192895 0.0036843 0.000542472 0.00313539 -5.35137e-05 7.70988e-05 0.991156 -0.117598
1.1305e+08   0.989442 -0.0892671 0.0126895 0.0647361 0.000630522 -0.0010252 0.0020527 -0.000340187
             0.0122158 0.0660689 0.984864 -0.110201 -0.00055614 0.00475038 -0.000865011 0.00643242
             -0.000123581 5.55303e-05 0.000233273 0.00346372 0.999875 -0.0120774 1.09724e-05 -2.67268e-05
             6.13003e-05 0.00331584 0.000567669 0.00314454 -5.29644e-05 7.79111e-05 0.990968 -0.119116
1.145e+08    0.988607 -0.0917097 0.0117774 0.0661375 0.000612935 -0.00103185 0.0019982 -0.000316037
             0.0125958 0.0666073 0.984478 -0.111616 -0.000532977 0.004803 -0.000801769 0.00648733
             -0.000108792 0.000106643 0.000227481 0.00350878 0.999873 -0.0122319 1.00508e-05 -2.65975e-05
             0.000224559 0.0037696 0.000557475 0.00316045 -5.24104e-05 7.87166e-05 0.990778 -0.120633
1.1595e+08   0.988956 -0.0916367 0.0122722 0.0683288 0.000595212 -0.00103826 0.00194345 -0.000290917
             0.0128777 0.0677471 0.984064 -0.113007 -0.00050964 0.00485533 -0.000738165 0.0065413
             -0.000132617 6.02521e-05 0.0002308 0.00356374 0.99987 -0.0123863 9.12609e-06 -2.6453e-05
             3.9866e-05 0.00342349 0.000542632 0.00321255 -5.18517e-05 7.95151e-05 0.990586 -0.12215
1.174e+08    0.987949 -0.0939927 0.0139566 0.0694069 0.000577357 -0.00104445 0.00188845 -0.00026482
             0.01323 0.0682778 0.98366 -0.114367 -0.000486133 0.00490737 -0.000674212 0.00659434
             -0.000111606 0.000108422 0.000246506 0.003613 0.999868 -0.0125408 8.19862e-06 -2.62933e-05
             0.000254935 0.0038517 0.000561666 0.00328046 -5.12885e-05 8.03067e-05 0.990391 -0.123666
1.1885e+08   0.988447 -0.0940183 0.0149224 0.0690254 0.000559371 -0.00105041 0.00183323 -0.000237743
             0.0135574 0.0694216 0.983284 -0.115732 -0.000462461 0.00495913 -0.000609925 0.00664645
             -0.00014172 6.51653e-05 0.000260468 0.00364877 0.999866 -0.0126952 7.26864e-06 -2.61185e-05
             2.05825e-05 0.00353461 0.000606306 0.00332041 -5.07208e-05 8.10913e-05 0.990194 -0.125182
1.203e+08    0.987283 -0.096267 0.0143013 0.0689028 0.000541258 -0.00105614 0.0017778 -0.000209679
             0.0138812 0.0699492 0.982907 -0.11713 -0.000438627 0.00501059 -0.000545319 0.00669762
             -0.000115261 0.000109928 0.000261235 0.00368226 0.999864 -0.0128496 6.3364e-06 -2.59285e-05
             0.000283052 0.00393061 0.000632159 0.00332759 -5.01488e-05 8.18689e-05 0.989994 -0.126698
1.2175e+08   0.987915 -0.0964114 0.0134472 0.0703596 0.000523021 -0.00106163 0.00172217 -0.000180625
             0.0142549 0.0710925 0.982494 -0.11854 -0.000414635 0.00506177 -0.000480408 0.00674784
             -0.000150793 7.11271e-05 0.000255878 0.00372753 0.999862 -0.013004 5.40219e-06 -2.57234e-05
             3.12258e-06 0.00364956 0.000621183 0.00334243 -4.95724e-05 8.26393e-05 0.989793 -0.128213
1.232e+08    0.986609 -0.0985342 0.0140309 0.0725315 0.000504663 -0.0010669 0.00166636 -0.000150575
             0.0145502 0.0716213 0.982053 -0.119924 -0.000390489 0.00511265 -0.000415207 0.00679712
             -0.000118703 0.000111316 0.000259904 0.00378236 0.999859 -0.0131584 4.46627e-06 -2.5503e-05
             0.000309291 0.00400781 0.000606032 0.00339515 -4.89919e-05 8.34026e-05 0.989588 -0.129728
1.2465e+08   0.987358 -0.0988142 0.0157401 0.0735382 0.000486187 -0.00107193 0.00161037 -0.000119527
             0.0149701 0.0727594 0.981625 -0.121278 -0.000366194 0.00516325 -0.00034973 0.00684544
             -0.000159541 7.68782e-05 0.000276074 0.00383113 0.999857 -0.0133128 3.5289e-06 -2.52674e-05
             -1.07386e-05 0.00376718 0.000626538 0.0034637 -4.84072e-05 8.41586e-05 0.989382 -0.131242
1.261e+08    0.985928 -0.100795 0.0166638 0.0731322 0.000467596 -0.00107672 0.00155424 -8.74747e-05
             0.015237 0.0732941 0.981225 -0.122637 -0.000341754 0.00521354 -0.000283992 0.00689282
             -0.000123236 0.000112304 0.000290081 0.00386652 0.999855 -0.0134672 2.59037e-06 -2.50167e-05
             0.000332419 0.00408222 0.000673206 0.00350261 -4.78185e-05 8.49074e-05 0.989173 -0.132756
1.2755e+08   0.986774 -0.101226 0.0160246 0.0730612 0.000448892 -0.00108127 0.00149796 -5.44159e-05
             0.0157027 0.0744225 0.980823 -0.124031 -0.000317171 0.00526355 -0.000218008 0.00693924
             -0.000168272 8.35536e-05 0.000290878 0.00390005 0.999852 -0.0136215 1.65092e-06 -2.47508e-05
             -2.20847e-05 0.00388784 0.000699667 0.00350768 -4.72258e-05 8.56488e-05 0.988962 -0.134269
1.29e+08     0.985242 -0.103051 0.0152317 0.0745711 0.00043008 -0.00108559 0.00144157 -2.03466e-05
             0.0159423 0.0749674 0.980384 -0.125437 -0.000292452 0.00531325 -0.000151792 0.0069847
             -0.000127903 0.000113212 0.000285933 0.00394552 0.99985 -0.0137758 7.10837e-07 -2.44697e-05
             0.000352621 0.00415554 0.00068784 0.00352144 -4.66292e-05 8.63829e-05 0.988749 -0.135783
1.3045e+08   0.986164 -0.103646 0.0159033 0.0767197 0.000411162 -0.00108967 0.00138506 1.47364e-05
             0.0164524 0.0760815 0.979916 -0.126814 -0.000267599 0.00536266 -8.53588e-05 0.0070292
             -0.000176849 9.04055e-05 0.000290654 0.00400025 0.999848 -0.0139302 -2.29622e-07 -2.41736e-05
             -2.96006e-05 0.00401103 0.000672395 0.00357477 -4.60289e-05 8.71096e-05 0.988533 -0.137295
1.319e+08    0.98455 -0.105304 0.0176338 0.0776552 0.000392141 -0.0010935 0.00132846 5.08364e-05
             0.0166661 0.0766413 0.979463 -0.128159 -0.000242617 0.00541177 -1.87235e-05 0.00707274
             -0.000133084 0.000114196 0.000307314 0.00404855 0.999845 -0.0140845 -1.17019e-06 -2.38623e-05
             0.000369837 0.00422754 0.000694397 0.00364388 -4.54249e-05 8.78288e-05 0.988315 -0.138808
1.3335e+08   0.985526 -0.106071 0.0185147 0.0772281 0.00037302 -0.0010971 0.00127178 8.7956e-05
             0.0172192 0.0777366 0.97904 -0.129513 -0.00021751 0.00546057 4.80995e-05 0.00711532
             -0.000185036 9.73705e-05 0.000321438 0.00408358 0.999843 -0.0142388 -2.1106e-06 -2.35359e-05
             -3.33835e-05 0.00413591 0.000743011 0.00368163 -4.48173e-05 8.85405e-05 0.988095 -0.14032
1.348e+08    0.983853 -0.107555 0.017861 0.0772104 0.000353803 -0.00110045 0.00121503 0.000126098
             0.0174089 0.0783156 0.978614 -0.130903 -0.000192281 0.00550908 0.000115095 0.00715693
             -0.000139137 0.000115179 0.00032234 0.00411709 0.99984 -0.014393 -3.0506e-06 -2.31945e-05
             0.000383366 0.00429875 0.000769936 0.00368459 -4.42062e-05 8.92446e-05 0.987872 -0.141831
1.3625e+08   0.984859 -0.108501 0.0171325 0.0787706 0.000334491 -0.00110356 0.00115824 0.000165265
             0.0180032 0.0793879 0.978147 -0.132304 -0.000166936 0.00555729 0.000182249 0.00719758
             -0.000192742 0.000104956 0.000317834 0.00416265 0.999838 -0.0145473 -3.98992e-06 -2.28381e-05
             -3.33602e-05 0.00426267 0.000757211 0.00369737 -4.35917e-05 8.99412e-05 0.987647 -0.143342
1.377e+08    0.983151 -0.109805 0.0178907 0.0808923 0.000315089 -0.00110642 0.00110141 0.000205459
             0.0181714 0.0799897 0.977652 -0.133674 -0.000141478 0.00560519 0.000249547 0.00723726
             -0.000145396 0.000115972 0.000323198 0.00421716 0.999835 -0.0147015 -4.9283e-06 -2.24667e-05
             0.000393817 0.0043698 0.00074158 0.00375137 -4.29738e-05 9.06301e-05 0.98742 -0.144853
1.3915e+08   0.984163 -0.110935 0.0196391 0.0817569 0.0002956 -0.00110904 0.00104457 0.000246681
             0.0188039 0.081035 0.977174 -0.135011 -0.000115911 0.00565279 0.000316973 0.00727596
             -0.000200185 0.000112407 0.00034024 0.00426495 0.999833 -0.0148557 -5.86547e-06 -2.20804e-05
             -2.93381e-05 0.00439017 0.000765182 0.00382091 -4.23528e-05 9.13114e-05 0.98719 -0.146363
1.406e+08    0.982445 -0.112058 0.020477 0.081312 0.000276026 -0.00111142 0.000987716 0.000288935
             0.0189532 0.0816637 0.976728 -0.136359 -9.02393e-05 0.00570009 0.000384514 0.00731371
             -0.00015251 0.000116629 0.000354379 0.00429962 0.99983 -0.01501 -6.8012e-06 -2.16793e-05
             0.000400632 0.0044411 0.000815678 0.0038573 -4.17285e-05 9.19849e-05 0.986958 -0.147873
1.4205e+08   0.983438 -0.113369 0.0198123 0.081349 0.000256371 -0.00111354 0.000930876 0.000332221
             0.019621 0.0826788 0.976276 -0.137745 -6.44671e-05 0.00574709 0.000452154 0.00735048
             -0.000207705 0.000120219 0.000355336 0.00433319 0.999827 -0.0151642 -7.7352e-06 -2.12634e-05
             -2.13718e-05 0.00451827 0.000842887 0.00385811 -4.11012e-05 9.26507e-05 0.986724 -0.149382
1.435e+08    0.981733 -0.114313 0.0191512 0.0829567 0.000236637 -0.00111542 0.000874061 0.00037654
             0.0197556 0.0833373 0.975782 -0.13914 -3.85985e-05 0.00579377 0.000519879 0.00738628
             -0.000159986 0.00011778 0.000351266 0.00437889 0.999825 -0.0153183 -8.66724e-06 -2.08328e-05
             0.000404079 0.00451325 0.000829178 0.00387001 -4.0471e-05 9.33087e-05 0.986488 -0.150891
1.4495e+08   0.982684 -0.115803 0.0199943 0.0850479 0.000216829 -0.00111705 0.000817288 0.000421895
             0.0204548 0.0843185 0.97526 -0.140502 -1.26376e-05 0.00584016 0.000587674 0.00742111
             -0.000214784 0.000127835 0.000357291 0.00443321 0.999822 -0.0154725 -9.59706e-06 -2.03875e-05
             -9.48049e-06 0.00464622 0.000813452 0.00392474 -3.98379e-05 9.39588e-05 0.986249 -0.1524
1.464e+08    0.981016 -0.116573 0.0217572 0.085842 0.000196948 -0.00111842 0.00076057 0.000468285
             0.020578 0.0850102 0.974758 -0.141831 1.34117e-05 0.00588624 0.000655524 0.00745498
             -0.000168375 0.000119289 0.000374743 0.0044805 0.99982 -0.0156266 -1.05244e-05 -1.99276e-05
             0.0004039 0.00458685 0.000838763 0.00399458 -3.92019e-05 9.46011e-05 0.986008 -0.153908
1.4785e+08   0.981901 -0.118235 0.0225521 0.0853829 0.000176998 -0.00111955 0.000703923 0.000515711
             0.021305 0.0859549 0.974287 -0.143173 3.95451e-05 0.00593201 0.000723416 0.00748787
             -0.000221207 0.000135794 0.000388931 0.00451482 0.999817 -0.0157808 -1.1449e-05 -1.94532e-05
             6.41077e-06 0.004774 0.000891076 0.00402942 -3.85634e-05 9.52355e-05 0.985764 -0.155415
1.493e+08    0.980293 -0.11884 0.02188 0.0854758 0.000156983 -0.00112043 0.000647362 0.000564174
             0.0214212 0.086682 0.97381 -0.144553 6.57587e-05 0.00597747 0.000791335 0.0075198
             -0.000177138 0.000120681 0.000389972 0.0045484 0.999814 -0.0159349 -1.23707e-05 -1.89644e-05
             0.000400701 0.00466223 0.000918361 0.00402798 -3.79222e-05 9.58619e-05 0.985519 -0.156922
1.5075e+08   0.981089 -0.120664 0.0212892 0.087128 0.000136905 -0.00112106 0.000590901 0.000613675
             0.0221714 0.0875881 0.973288 -0.145942 9.20483e-05 0.00602263 0.000859265 0.00755076
             -0.000227582 0.000143675 0.000386339 0.00459419 0.999811 -0.016089 -1.32891e-05 -1.84612e-05
             2.6088e-05 0.00490081 0.000903522 0.00403911 -3.72785e-05 9.64804e-05 0.985271 -0.158429
1.522e+08    0.979562 -0.121114 0.0222158 0.089185 0.000116767 -0.00112143 0.000534556 0.000664212
             0.0222854 0.0883524 0.972739 -0.147295 0.00011841 0.00606748 0.000927193 0.00758075
             -0.000186444 0.000122446 0.00039298 0.00464829 0.999809 -0.0162431 -1.42041e-05 -1.79438e-05
             0.000394479 0.00473981 0.000887731 0.00409468 -3.66324e-05 9.70909e-05 0.98502 -0.159935
1.5365e+08   0.98025 -0.123088 0.0239899 0.0899095 9.65723e-05 -0.00112156 0.000478342 0.000715786
             0.0230542 0.0892179 0.972212 -0.148615 0.000144839 0.00611203 0.000995104 0.00760979
             -0.000233718 0.000151566 0.00041077 0.00469508 0.999806 -0.0163972 -1.51153e-05 -1.74123e-05
             4.92618e-05 0.00502639 0.000914839 0.00416478 -3.5984e-05 9.76933e-05 0.984768 -0.161441
1.551e+08    0.978824 -0.123396 0.0247419 0.0894394 7.63244e-05 -0.00112143 0.000422273 0.000768398
             0.0231707 0.090021 0.971718 -0.14995 0.000171333 0.00615627 0.00106298 0.00763785
             -0.000196008 0.000124556 0.00042497 0.00472911 0.999803 -0.0165512 -1.60226e-05 -1.68666e-05
             0.00038572 0.00482009 0.00096895 0.00419794 -3.53334e-05 9.82877e-05 0.984513 -0.162946
1.5655e+08   0.979384 -0.125506 0.0240662 0.0895893 5.60262e-05 -0.00112104 0.000366364 0.000822045
             0.0239533 0.0908447 0.971214 -0.151325 0.000197886 0.0062002 0.00113082 0.00766496
             -0.000239727 0.000158904 0.000426123 0.00476277 0.9998 -0.0167053 -1.69258e-05 -1.63071e-05
             7.57837e-05 0.00515008 0.000996195 0.00419422 -3.46806e-05 9.8874e-05 0.984256 -0.164451
1.58e+08     0.978076 -0.12569 0.0235482 0.0912827 3.56807e-05 -0.00112041 0.000310631 0.000876727
             0.0240772 0.0916876 0.970664 -0.152708 0.000224495 0.00624382 0.00119859 0.00769111
             -0.000206573 0.000127193 0.000423008 0.00480869 0.999798 -0.0168593 -1.78245e-05 -1.57336e-05
             0.000374512 0.00490324 0.000980167 0.00420462 -3.40258e-05 9.94522e-05 0.983997 -0.165955
1.5945e+08   0.978492 -0.127917 0.0245565 0.0933023 1.5291e-05 -0.00111952 0.000255088 0.000932444
             0.0248688 0.0924691 0.970088 -0.154052 0.000251156 0.00628714 0.00126629 0.0077163
             -0.000245509 0.000166561 0.000430344 0.00486252 0.999795 -0.0170133 -1.87186e-05 -1.51465e-05
             0.000105024 0.00527168 0.00096436 0.00426103 -3.33691e-05 0.000100022 0.983735 -0.167459
1.609e+08    0.977316 -0.127994 0.0263387 0.093958 -5.13985e-06 -0.00111838 0.000199749 0.000989194
             0.0250054 0.0933516 0.969536 -0.155362 0.000277865 0.00633015 0.00133391 0.00774054
             -0.00021726 0.000130344 0.000448512 0.00490875 0.999792 -0.0171673 -1.96077e-05 -1.45457e-05
             0.000361271 0.00498989 0.000993292 0.00433127 -3.27106e-05 0.000100584 0.983471 -0.168963
1.6235e+08   0.977575 -0.13032 0.0270483 0.0934802 -2.56087e-05 -0.00111698 0.000144629 0.00104698
             0.025801 0.0940908 0.969018 -0.156691 0.000304617 0.00637286 0.00140142 0.00776382
             -0.000251039 0.000173907 0.00046272 0.00494243 0.999789 -0.0173213 -2.04918e-05 -1.39314e-05
             0.000136799 0.00539086 0.00104909 0.00436262 -3.20502e-05 0.000101138 0.983205 -0.170466
1.638e+08    0.976545 -0.130309 0.0263726 0.0936878 -4.61124e-05 -0.00111533 8.97439e-05 0.00110579
             0.0259552 0.0950125 0.968488 -0.15806 0.000331409 0.00641525 0.00146881 0.00778616
             -0.000228314 0.000133898 0.000463969 0.00497616 0.999786 -0.0174753 -2.13706e-05 -1.33038e-05
             0.000346304 0.00508029 0.00107611 0.00435661 -3.13883e-05 0.000101683 0.982937 -0.171968
1.6525e+08   0.976634 -0.132713 0.02593 0.0954192 -6.66481e-05 -0.00111342 3.51072e-05 0.00116563
             0.0267496 0.0957102 0.96791 -0.159435 0.000358238 0.00645735 0.00153608 0.00780755
             -0.000256515 0.000180958 0.000461375 0.00502219 0.999783 -0.0176292 -2.22437e-05 -1.26629e-05
             0.000170802 0.00550764 0.00105883 0.00436642 -3.07248e-05 0.00010222 0.982666 -0.17347
1.667e+08    0.97576 -0.132638 0.027018 0.0973982 -8.72126e-05 -0.00111126 -1.92662e-05 0.00122649
             0.0269266 0.0966701 0.967307 -0.160769 0.000385098 0.00649913 0.0016032 0.007828
             -0.000239762 0.00013797 0.000469439 0.00507573 0.99978 -0.0177831 -2.31111e-05 -1.20088e-05
             0.000330495 0.00517455 0.0010431 0.00442373 -3.00598e-05 0.000102749 0.982393 -0.174972
1.6815e+08   0.975671 -0.135097 0.0288052 0.097986 -0.000107803 -0.00110884 -7.33618e-05 0.00128838
             0.0277149 0.0973277 0.96673 -0.16207 0.000411986 0.00654062 0.00167016 0.00784751
             -0.000261997 0.000187809 0.000488034 0.00512134 0.999777 -0.0179371 -2.39725e-05 -1.13418e-05
             0.000206512 0.00562125 0.00107394 0.00449401 -2.93934e-05 0.00010327 0.982118 -0.176473
1.696e+08    0.974959 -0.134979 0.029473 0.0975038 -0.000128416 -0.00110617 -0.000127165 0.0013513
             0.0279199 0.098324 0.966187 -0.163391 0.000438898 0.00658179 0.00173695 0.00786609
             -0.000251416 0.000142659 0.000502289 0.00515457 0.999774 -0.018091 -2.48277e-05 -1.06619e-05
             0.000313701 0.00527283 0.00113136 0.00452338 -2.87258e-05 0.000103782 0.98184 -0.177974
1.7105e+08   0.974687 -0.137471 0.0288013 0.0977697 -0.000149048 -0.00110324 -0.000180662 0.00141523
