# Hz S RI R 50
1e+08        0.992497 -0.0736546 0.0105321 0.0578076 -0.000155932 2.69555e-05 -0.00116623 0.005537
             0.00931025 0.058153 0.986982 -0.0934533 0.000240745 0.00407994 0.00287669 0.01348
             -0.000127167 6.57744e-05 0.000221616 0.00405352 0.99993 -0.00874248 6.26233e-07 0.000756701
             -4.33527e-05 0.00466327 0.00235144 0.013748 4.70811e-05 0.000764309 0.989291 -0.132674
1.0145e+08   0.991286 -0.0716374 0.00961753 0.057009 -0.000168139 4.83218e-05 -0.000226082 0.00628927
             0.0103735 0.0569015 0.987102 -0.0942748 0.000252312 0.00413077 0.00218429 0.0130592
             -0.000123817 4.01257e-05 0.000238461 0.00413841 0.999935 -0.00888908 3.01595e-05 0.000789651
             -0.000675994 0.006204 0.00217726 0.0135147 5.05477e-05 0.000763058 0.988901 -0.134603
1.029e+08    0.991976 -0.0757329 0.0104276 0.0597401 -0.000168964 7.1396e-05 0.000439738 0.00543184
             0.00991373 0.059772 0.986476 -0.0962228 0.000259454 0.00417972 0.00163045 0.0139923
             -0.000133983 6.88125e-05 0.000244626 0.00416752 0.99993 -0.00903628 5.31405e-05 0.000772228
             -9.37281e-05 0.00482275 0.00230412 0.0141809 4.7323e-05 0.000762117 0.988616 -0.136389
1.0435e+08   0.99088 -0.0736846 0.0109283 0.0585556 -0.000159091 9.00441e-05 -0.000491751 0.00482677
             0.0109058 0.0584939 0.986126 -0.0968494 0.000261824 0.00422938 0.00241992 0.0148063
             -0.000131618 4.301e-05 0.000240171 0.00425243 0.999914 -0.00917829 2.61907e-05 0.000760681
             -0.000671761 0.00638271 0.00248251 0.0138997 3.84875e-05 0.000764924 0.988469 -0.138282
1.058e+08    0.991441 -0.0778065 0.0102989 0.0611201 -0.000142333 9.93161e-05 -0.00121789 0.00581224
             0.0105335 0.061385 0.985988 -0.0988027 0.000260464 0.00428215 0.00313117 0.0142858
             -0.000140761 7.18577e-05 0.000266217 0.00428945 0.999893 -0.00931073 3.67246e-06 0.000798811
             -0.000144673 0.00498425 0.0022683 0.0144785 2.67863e-05 0.00077388 0.988215 -0.140318
1.0725e+08   0.990461 -0.075732 0.0120992 0.060609 -0.00012456 9.69711e-05 -0.000337167 0.00663391
             0.0114535 0.0600835 0.985159 -0.0995972 0.000257539 0.00433956 0.00249771 0.0138073
             -0.000139571 4.59357e-05 0.000246335 0.00435976 0.999872 -0.00943201 3.13307e-05 0.000833853
             -0.000667725 0.0065612 0.00273655 0.0144017 1.58387e-05 0.000789592 0.98781 -0.142252
1.087e+08    0.990892 -0.0798751 0.0105308 0.0620724 -0.000111941 8.41768e-05 0.000396599 0.00583697
             0.0111693 0.062992 0.985382 -0.101218 0.000255695 0.00440179 0.00189119 0.0146829
             -0.000147744 7.48739e-05 0.000281494 0.00441606 0.999856 -0.00954379 5.65018e-05 0.000818363
             -0.000196485 0.00514785 0.00233319 0.014684 9.03608e-06 0.000810673 0.987502 -0.144037
1.1015e+08   0.99003 -0.0777794 0.0128239 0.0629313 -0.000109084 6.5111e-05 -0.000475907 0.0051667
             0.0120166 0.0616703 0.984317 -0.102451 0.000257268 0.00446763 0.002628 0.0155494
             -0.000147874 4.89697e-05 0.000260543 0.00446514 0.999851 -0.00965047 3.15642e-05 0.000804704
             -0.000664029 0.00673979 0.00287324 0.0149526 8.52114e-06 0.000834189 0.98734 -0.145921
1.116e+08    0.990331 -0.0819387 0.0113133 0.0629475 -0.000117751 4.56517e-05 -0.0012662 0.00609186
             0.0118211 0.064593 0.984581 -0.103577 0.000263626 0.00453486 0.00339421 0.0150849
             -0.000155027 7.8134e-05 0.000289484 0.00454155 0.999856 -0.0097578 7.059e-06 0.000840765
             -0.000249002 0.0053138 0.00253314 0.0148886 1.45986e-05 0.00085657 0.987077 -0.147955
1.1305e+08   0.989585 -0.0798265 0.0130365 0.0651348 -0.000136478 3.16645e-05 -0.000449863 0.00697775
             0.0125954 0.0632543 0.983638 -0.105284 0.000274817 0.00460091 0.00282367 0.014554
             -0.00015631 5.23894e-05 0.000282416 0.00457399 0.99987 -0.00987123 3.25784e-05 0.000877806
             -0.000660376 0.00691858 0.00288965 0.0154558 2.57226e-05 0.000874643 0.986658 -0.149895
1.145e+08    0.989756 -0.083997 0.0125493 0.0641227 -0.000161093 2.74223e-05 0.000346521 0.00624649
             0.0124893 0.0661877 0.983598 -0.106011 0.000289612 0.00466354 0.00216966 0.0153678
             -0.000162153 8.16101e-05 0.000292784 0.00466054 0.999889 -0.00999442 5.97744e-05 0.000864552
             -0.000301846 0.0054818 0.00283111 0.0151806 3.89881e-05 0.000886479 0.986328 -0.151678
1.1595e+08   0.989128 -0.0818735 0.0129567 0.0668867 -0.000185883 3.45254e-05 -0.000461974 0.00551634
             0.0131898 0.0648348 0.983064 -0.107975 0.000305843 0.00472146 0.00284981 0.0162818
             -0.000164658 5.56066e-05 0.000307171 0.00469039 0.999907 -0.0101284 3.71487e-05 0.00084901
             -0.000657064 0.00709713 0.00285083 0.0158386 5.09358e-05 0.00089187 0.98615 -0.153553
1.174e+08    0.989168 -0.0860501 0.013918 0.0658094 -0.000205091 5.15021e-05 -0.00131097 0.00637664
             0.0131732 0.0677762 0.982531 -0.108607 0.000320972 0.00477459 0.00366591 0.0158768
             -0.000169721 8.49006e-05 0.000297118 0.00477134 0.999919 -0.0102711 1.09641e-05 0.00088273
             -0.000355497 0.00565201 0.00314173 0.0155998 5.84679e-05 0.000892377 0.985879 -0.155584
1.1885e+08   0.988657 -0.0839203 0.012975 0.0680981 -0.00021445 7.41565e-05 -0.000563361 0.00732104
             0.0138002 0.0664122 0.98247 -0.110475 0.000332747 0.00482416 0.00316184 0.0152985
             -0.00017336 5.91297e-05 0.000328693 0.00481373 0.999921 -0.0104182 3.41494e-05 0.000921368
             -0.000654134 0.00727593 0.00285464 0.0160937 5.96827e-05 0.000890931 0.985445 -0.157529
1.203e+08    0.988566 -0.088098 0.0150411 0.0679514 -0.000212393 9.66399e-05 0.000289868 0.0066599
             0.013873 0.0693577 0.981509 -0.111363 0.00033982 0.00487238 0.00246548 0.0160466
             -0.00017738 8.83566e-05 0.00030755 0.00487646 0.999912 -0.0105641 6.29373e-05 0.000910404
             -0.000409598 0.00582452 0.0033754 0.0161184 5.44355e-05 0.00089106 0.985093 -0.159312
1.2175e+08   0.988173 -0.0859667 0.0134326 0.0689732 -0.0002006 0.000113059 -0.000450331 0.00587546
             0.0144259 0.067986 0.98173 -0.112836 0.000342169 0.00492189 0.00308488 0.0170027
             -0.000182196 6.27697e-05 0.00034294 0.00493941 0.999894 -0.0107033 4.25309e-05 0.000893306
             -0.000651586 0.00745488 0.00297585 0.0162833 4.44411e-05 0.000895901 0.984898 -0.161178
1.232e+08    0.987952 -0.0901404 0.0156737 0.0702507 -0.000183603 0.000119207 -0.00135253 0.00666693
             0.0145885 0.0709328 0.980629 -0.114192 0.000341144 0.00497498 0.00394523 0.016661
             -0.00018517 9.18608e-05 0.00032583 0.00498126 0.999872 -0.0108323 1.48057e-05 0.000924815
             -0.00046407 0.00599943 0.00348392 0.0166555 3.28224e-05 0.000907254 0.98462 -0.163205
1.2465e+08   0.987676 -0.0880126 0.0144349 0.0698885 -0.000167483 0.000113858 -0.000677641 0.00766416
             0.0150674 0.0695564 0.98079 -0.115177 0.000339099 0.0050329 0.00351092 0.0160413
             -0.000191197 6.64316e-05 0.000349902 0.00506206 0.999853 -0.0109505 3.56671e-05 0.000965037
             -0.000649326 0.00763391 0.00322601 0.0165027 2.31915e-05 0.000925014 0.984173 -0.165155
1.261e+08    0.987325 -0.0921775 0.0158379 0.072318 -0.000158049 9.91308e-05 0.000226499 0.00707739
             0.0153196 0.072501 0.979903 -0.116963 0.000338693 0.00509552 0.00277832 0.0167206
             -0.00019329 9.53244e-05 0.000350145 0.00509153 0.99984 -0.0110605 6.60165e-05 0.000956512
             -0.000519026 0.00617661 0.00348812 0.0171175 1.85591e-05 0.00094721 0.983798 -0.166937
1.2755e+08   0.987166 -0.0900581 0.0158084 0.0711862 -0.000159128 7.98079e-05 -0.000441295 0.00624469
             0.0157245 0.071123 0.979691 -0.117621 0.000342112 0.00516134 0.0033341 0.017713
             -0.00020062 7.03748e-05 0.000353865 0.00517768 0.999838 -0.0111672 4.80342e-05 0.000937989
             -0.000647532 0.00781323 0.00354962 0.0168277 2.04515e-05 0.00097062 0.983587 -0.168794
1.29e+08     0.986686 -0.0942088 0.01582 0.0738825 -0.000171535 6.18845e-05 -0.00139063 0.00696376
             0.016066 0.0740625 0.979251 -0.11957 0.000350455 0.005228 0.00423311 0.0174371
             -0.000201461 9.91411e-05 0.000375542 0.00520985 0.999846 -0.0112764 1.89626e-05 0.000967131
             -0.000574255 0.00635627 0.00346792 0.0174502 2.85155e-05 0.000991745 0.9833 -0.170818
1.3045e+08   0.986642 -0.0921029 0.0171989 0.0730017 -0.000192947 5.08658e-05 -0.000791807 0.00800762
             0.0163974 0.0726861 0.978544 -0.120232 0.000363475 0.00529292 0.0038712 0.0167817
             -0.000210024 7.4317e-05 0.000360755 0.00528548 0.999861 -0.0113929 3.73828e-05 0.00100876
             -0.000646026 0.00799284 0.00385562 0.0172766 4.0685e-05 0.00100779 0.98284 -0.172773
1.319e+08    0.986033 -0.0962347 0.0160142 0.0749456 -0.000218631 5.03027e-05 0.000156979 0.00749874
             0.0168282 0.075617 0.978541 -0.121992 0.000379678 0.00535402 0.00310831 0.0173894
             -0.000209943 0.000102912 0.000396014 0.00533408 0.99988 -0.0115196 6.91324e-05 0.00100283
             -0.000629658 0.00653825 0.0035181 0.0176699 5.37958e-05 0.00101742 0.982443 -0.174555
1.3335e+08   0.986104 -0.094147 0.0182526 0.0751988 -0.000242732 6.08904e-05 -0.000434934 0.00662402
             0.0170862 0.0742451 0.977474 -0.122984 0.000396733 0.00541025 0.00359779 0.018412
             -0.000219749 7.84362e-05 0.000374917 0.0053892 0.999896 -0.0116565 5.37916e-05 0.000983094
             -0.000644988 0.00817269 0.00406402 0.0178023 6.44513e-05 0.00102105 0.982214 -0.176402
1.348e+08    0.985368 -0.0982551 0.016702 0.0757776 -0.000259824 8.02868e-05 -0.00142515 0.00726762
             0.0176056 0.0771643 0.977664 -0.124304 0.000412085 0.00546185 0.00452955 0.0182041
             -0.000218707 0.000106923 0.000408651 0.00545895 0.999904 -0.0118009 2.3691e-05 0.00100968
             -0.000685245 0.00672264 0.00369565 0.0178535 6.99302e-05 0.00102077 0.98192 -0.178422
1.3625e+08   0.985553 -0.0961902 0.0187984 0.0774361 -0.00026638 0.000103696 -0.000905218 0.00835172
             0.0177907 0.0758 0.976557 -0.125774 0.000423632 0.00551034 0.0042421 0.0175189
             -0.000229577 8.28752e-05 0.000397017 0.00549493 0.999902 -0.0119478 3.95994e-05 0.00105232
             -0.000644416 0.00835291 0.00414785 0.018315 6.89379e-05 0.0010198 0.981446 -0.180382
1.377e+08    0.984691 -0.10027 0.0179038 0.0767614 -0.000261803 0.000125135 8.17012e-05 0.00792365
             0.0183981 0.0787046 0.976592 -0.126631 0.000430317 0.00555813 0.00345493 0.0180526
             -0.000227486 0.000111058 0.0004154 0.00557895 0.99989 -0.0120916 7.24099e-05 0.00104893
             -0.000740823 0.00690952 0.00398915 0.0180944 6.20077e-05 0.00102157 0.981027 -0.182164
1.3915e+08   0.984988 -0.0982325 0.0189441 0.0793429 -0.000248683 0.000139113 -0.000431474 0.00701335
             0.0185112 0.0773508 0.975778 -0.12847 0.000432474 0.00560785 0.00387582 0.0190993
             -0.000239519 8.73071e-05 0.00042377 0.00560721 0.99987 -0.0122275 5.96005e-05 0.00102817
             -0.000644231 0.00853335 0.004149 0.01873 5.13985e-05 0.00102879 0.980781 -0.184002
1.406e+08    0.984001 -0.102279 0.0193797 0.0781885 -0.000232115 0.000142263 -0.0014562 0.00757896
             0.0192058 0.0802374 0.975389 -0.129085 0.000431758 0.00566159 0.00483415 0.0189613
             -0.000236606 0.000115262 0.000421072 0.005691 0.999849 -0.0123528 2.85241e-05 0.00105224
             -0.000796475 0.00709879 0.00432817 0.0184525 4.0464e-05 0.00104258 0.980479 -0.186016
1.4205e+08   0.984409 -0.100274 0.0190248 0.0807224 -0.000218205 0.000134358 -0.0010175 0.00869683
             0.0192476 0.0788974 0.975038 -0.130989 0.000430684 0.00572031 0.00462261 0.0182525
             -0.00024963 9.20215e-05 0.000449268 0.00572725 0.999831 -0.012468 4.18048e-05 0.00109587
             -0.000644575 0.0087141 0.00415697 0.0190146 3.26574e-05 0.00106217 0.979993 -0.187981
1.435e+08    0.9833 -0.104282 0.0207593 0.0801138 -0.00021226 0.00011837 8.99729e-07 0.008352
             0.0200286 0.0817628 0.974173 -0.131705 0.000431881 0.00578349 0.00381739 0.0187107
             -0.000245823 0.000119541 0.000431399 0.00579623 0.999821 -0.0125766 7.55275e-05 0.00109526
             -0.000852187 0.00729055 0.00462091 0.0189244 3.04989e-05 0.00108509 0.979552 -0.189764
1.4495e+08   0.983816 -0.102314 0.0194175 0.0816636 -0.000217258 9.95332e-05 -0.000431192 0.00741277
             0.0199997 0.0804394 0.974206 -0.133337 0.000437332 0.00584938 0.00416817 0.0197754
             -0.000259951 9.67714e-05 0.000468533 0.00585163 0.999822 -0.0126837 6.5471e-05 0.00107378
             -0.000645379 0.00889531 0.00425834 0.0192069 3.48552e-05 0.00110796 0.979288 -0.191592
1.464e+08    0.982586 -0.10628 0.0217308 0.0823294 -0.000233075 8.38017e-05 -0.00148389 0.00789846
             0.0208664 0.0832809 0.973061 -0.134441 0.000447833 0.00591546 0.00514703 0.0197085
             -0.000255469 0.000123922 0.000449696 0.0058993 0.999833 -0.0127949 3.3808e-05 0.00109525
             -0.00090785 0.00748475 0.0048016 0.0194461 4.47405e-05 0.00112748 0.978977 -0.193602
1.4785e+08   0.983209 -0.104353 0.0203327 0.0824862 -0.000256613 7.61878e-05 -0.00112811 0.00904355
             0.0207679 0.081977 0.973193 -0.135608 0.000462806 0.00597919 0.0050126 0.0189822
             -0.000270536 0.000102039 0.000480228 0.00597462 0.99985 -0.0129145 4.4522e-05 0.00113952
             -0.000646743 0.00907703 0.00448924 0.0193937 5.76483e-05 0.00114132 0.97848 -0.195571
1.493e+08    0.981859 -0.108271 0.0222046 0.0844682 -0.000282706 7.94385e-05 -8.48637e-05 0.00878384
             0.021719 0.0847913 0.972106 -0.137176 0.000480482 0.00603866 0.00419574 0.0193637
             -0.000264939 0.000128531 0.000475169 0.00600599 0.999867 -0.0130445 7.89193e-05 0.0011416
             -0.000963315 0.00768151 0.00486565 0.0199249 7.02693e-05 0.00114878 0.978016 -0.197355
1.5075e+08   0.982588 -0.10639 0.0217078 0.0835595 -0.000305518 9.33315e-05 -0.000433905 0.00782233
             0.0215521 0.0835098 0.971998 -0.137927 0.000498378 0.00609312 0.00447536 0.0204399
             -0.000281271 0.000107192 0.000487224 0.00609138 0.999881 -0.013184 7.1571e-05 0.00111958
             -0.000648562 0.00925923 0.00481714 0.0196611 7.9391e-05 0.0011509 0.977734 -0.199174
1.522e+08    0.981122 -0.110257 0.0223645 0.0861969 -0.000320102 0.000114725 -0.00150789 0.00822641
             0.0225866 0.0862941 0.971266 -0.13979 0.000513951 0.00614315 0.00546845 0.0204448
             -0.000274771 0.000133348 0.000503567 0.0061202 0.999886 -0.0133294 3.94966e-05 0.00113848
             -0.00101855 0.0078807 0.00487339 0.0202899 8.27661e-05 0.00115021 0.977415 -0.201177
1.5365e+08   0.981953 -0.108426 0.0232498 0.0851147 -0.00032377 0.000138367 -0.00123645 0.00939184
             0.0223524 0.0850377 0.970701 -0.140389 0.000525282 0.00619057 0.00541148 0.0197072
             -0.000292068 0.000112601 0.000495206 0.00619987 0.99988 -0.0134755 4.76954e-05 0.00118321
             -0.000650925 0.00944189 0.00516104 0.0200501 7.9748e-05 0.00115007 0.976906 -0.203151
1.551e+08    0.980372 -0.112237 0.0225773 0.0874023 -0.000316896 0.000158314 -0.000175483 0.00921857
             0.023469 0.0877889 0.970429 -0.14222 0.000531636 0.00623794 0.00458915 0.0200115
             -0.000284777 0.000138209 0.000528563 0.00624131 0.999865 -0.0136168 8.26662e-05 0.00118791
             -0.00107362 0.00808237 0.00491777 0.020531 7.15124e-05 0.00115371 0.97642 -0.204936
1.5655e+08   0.981303 -0.11046 0.0245909 0.0871241 -0.000302892 0.000169634 -0.000440347 0.00824191
             0.0231686 0.0865604 0.969427 -0.143009 0.000533704 0.00628785 0.00479702 0.021093
             -0.000303166 0.000118205 0.000509165 0.0063029 0.999844 -0.0137492 7.80449e-05 0.00116537
             -0.000653869 0.00962524 0.00543354 0.0205365 6.07579e-05 0.0011633 0.976119 -0.206746
1.58e+08     0.97961 -0.114211 0.0231834 0.0882513 -0.000287252 0.000169869 -0.00152874 0.00856368
             0.0243659 0.089276 0.969471 -0.1445 0.000533434 0.00634219 0.00579819 0.0211699
             -0.000294966 0.000143434 0.000546365 0.0063651 0.999823 -0.0138711 4.55641e-05 0.00118152
             -0.00112826 0.00828654 0.0050724 0.0207052 5.09318e-05 0.0011793 0.975792 -0.208742
1.5945e+08   0.980639 -0.112492 0.0254753 0.0893197 -0.000275942 0.000159771 -0.00134209 0.00974274
             0.0240011 0.0880778 0.968278 -0.145715 0.000533468 0.00640155 0.0058188 0.0204272
             -0.000314184 0.000124026 0.00053136 0.00640581 0.999808 -0.0139839 5.09509e-05 0.00122659
             -0.000657402 0.00980911 0.00558674 0.0210433 4.52051e-05 0.00120028 0.975272 -0.21072
1.609e+08    0.978837 -0.116179 0.0243147 0.0890949 -0.000273645 0.000143057 -0.000270153 0.00965647
             0.0252774 0.0907547 0.968326 -0.146736 0.000536368 0.00646511 0.00499742 0.0206542
             -0.000305294 0.00014867 0.000557169 0.00648564 0.999802 -0.0140917 8.61554e-05 0.00123421
             -0.00118262 0.00849324 0.00535139 0.0209032 4.5538e-05 0.00122343 0.974764 -0.212507
1.6235e+08   0.979961 -0.114522 0.0258967 0.0913282 -0.00028244 0.00012527 -0.000450198 0.00867142
             0.0248493 0.0895898 0.967281 -0.148384 0.000543888 0.00653081 0.00513356 0.0217344
             -0.000325346 0.000130025 0.000559655 0.00651404 0.999805 -0.0141999 8.44284e-05 0.00121163
             -0.000661503 0.0099937 0.00563792 0.0214808 5.21368e-05 0.00124531 0.974444 -0.214307
1.638e+08    0.978053 -0.118142 0.0258318 0.0902748 -0.000301292 0.000112179 -0.00154631 0.0089105
             0.0262031 0.0922256 0.967015 -0.149049 0.000556501 0.00659606 0.00613648 0.021883
             -0.000315761 0.000153953 0.000565107 0.00659878 0.999818 -0.0143137 5.20434e-05 0.00122507
             -0.00123656 0.00870244 0.00570393 0.0211997 6.34437e-05 0.00126294 0.974108 -0.216297
1.6525e+08   0.979268 -0.116551 0.0261071 0.0928712 -0.000326416 0.000108192 -0.00144457 0.0100965
             0.0257135 0.0910965 0.966372 -0.150907 0.0005733 0.00665836 0.00623393 0.0211413
             -0.000336796 0.000136147 0.000588694 0.00662998 0.999835 -0.0144366 5.48069e-05 0.00127008
             -0.000666238 0.0101791 0.00566174 0.0217953 7.66151e-05 0.00127454 0.973578 -0.218279
1.667e+08    0.977257 -0.120098 0.0274052 0.0919483 -0.00035235 0.000115198 -0.000368528 0.0100973
             0.0271433 0.0936884 0.965638 -0.151516 0.00059226 0.00671604 0.00541965 0.0212916
             -0.000326474 0.000159536 0.000575828 0.00670422 0.999852 -0.0145698 9.00103e-05 0.00128042
             -0.00128987 0.00891421 0.00604291 0.0216153 8.83195e-05 0.00128002 0.973048 -0.220068
1.6815e+08   0.978561 -0.118577 0.0264809 0.09392 -0.000373424 0.000132074 -0.000463672 0.00911078
             0.026594 0.0925974 0.96543 -0.15325 0.000610778 0.00676864 0.00548462 0.0223644
             -0.000348256 0.000142544 0.000612796 0.00675181 0.999862 -0.0147113 9.10623e-05 0.00125793
             -0.000671496 0.0103652 0.00574917 0.0219996 9.56416e-05 0.00128099 0.972708 -0.221859
1.696e+08    0.976449 -0.122049 0.0286862 0.0940107 -0.000385297 0.000154972 -0.00156078 0.00926737
             0.0280979 0.0951428 0.964314 -0.154125 0.000626365 0.00681711 0.00648316 0.0225838
             -0.000337233 0.000165175 0.000593797 0.00680575 0.999863 -0.0148571 5.89132e-05 0.00126867
             -0.00134268 0.00912843 0.00629061 0.0221066 9.68813e-05 0.00128034 0.972364 -0.223841
1.7105e+08   0.977839 -0.1206 0.0273071 0.0947089 -0.000386176 0.000178335 -0.00154348 0.0104536
             0.0274906 0.0940924 0.964343 -0.155467 0.000637337 0.00686354 0.00665638 0.0218491
             -0.000359918 0.000148949 0.000629349 0.00687422 0.999854 -0.0150018 5.90313e-05 0.00131339
             -0.000677451 0.0105521 0.00595669 0.0221648 9.20471e-05 0.00128142 0.971824 -0.225827
