# Hz S RI R 50
1e+08        0.991734 -0.0652655 0.0103073 0.0461996 -0.00235099 0.00165793 -0.00496784 0.0090211
             0.0105136 0.0448863 0.985886 -0.0740611 0.00175095 0.00297391 0.00236399 0.00302413
             -0.000284614 0.000296587 0.00043806 0.00427754 0.999965 -0.00917102 0.000203619 -0.000153762
             0.000448866 0.00383413 0.00141657 0.00410202 0.000350898 -0.000279015 0.979006 -0.164013
1.0145e+08   0.991528 -0.06619 0.0106099 0.0468071 -0.0023408 0.00167872 -0.00489819 0.00913426
             0.0107878 0.0454933 0.985496 -0.0750656 0.00174747 0.00301933 0.00238851 0.00306259
             -0.000287516 0.000300485 0.000451976 0.00433426 0.999964 -0.0093037 0.000201027 -0.000155126
             0.000453593 0.00389479 0.00145538 0.00415082 0.000346849 -0.000281724 0.978211 -0.166248
1.029e+08    0.99132 -0.0671134 0.0109159 0.0474121 -0.00233052 0.00169938 -0.00482779 0.00924673
             0.0110654 0.0460984 0.985102 -0.0760672 0.00174399 0.00306485 0.00241331 0.00310084
             -0.000290484 0.000304377 0.000465979 0.0043908 0.999962 -0.00943637 0.00019841 -0.000156456
             0.000458501 0.00395563 0.0014946 0.0041992 0.000342762 -0.00028438 0.977406 -0.168476
1.0435e+08   0.991109 -0.068036 0.0112254 0.0480147 -0.00232014 0.00171992 -0.00475664 0.00935848
             0.0113466 0.0467017 0.984702 -0.077066 0.0017405 0.00311045 0.00243841 0.00313886
             -0.000293522 0.000308262 0.000480067 0.00444715 0.99996 -0.00956903 0.000195769 -0.000157752
             0.000463595 0.00401666 0.00153423 0.00424715 0.000338638 -0.000286983 0.976591 -0.170699
1.058e+08    0.990895 -0.0689576 0.0115384 0.0486148 -0.00230967 0.00174032 -0.00468474 0.00946951
             0.0116313 0.0473031 0.984297 -0.0780618 0.00173701 0.00315614 0.0024638 0.00317665
             -0.000296628 0.000312143 0.000494235 0.00450333 0.999958 -0.00970168 0.000193104 -0.000159013
             0.000468878 0.00407786 0.00157426 0.00429467 0.000334476 -0.000289532 0.975767 -0.172916
1.0725e+08   0.990679 -0.0698782 0.0118548 0.0492124 -0.0022991 0.00176059 -0.00461212 0.00957983
             0.0119196 0.0479026 0.983888 -0.0790546 0.00173351 0.00320192 0.00248947 0.00321421
             -0.000299803 0.000316019 0.000508481 0.00455933 0.999956 -0.00983432 0.000190416 -0.000160238
             0.000474355 0.00413926 0.00161469 0.00434176 0.000330278 -0.000292027 0.974932 -0.175127
1.087e+08    0.990459 -0.0707979 0.0121745 0.0498076 -0.00228845 0.00178073 -0.00453877 0.00968942
             0.0122113 0.0485002 0.983474 -0.0800444 0.00173002 0.00324779 0.00251543 0.00325155
             -0.00030305 0.000319891 0.0005228 0.00461514 0.999954 -0.00996694 0.000187706 -0.000161429
             0.00048003 0.00420083 0.0016555 0.0043884 0.000326045 -0.000294467 0.974089 -0.177331
1.1015e+08   0.990237 -0.0717166 0.0124976 0.0504002 -0.00227771 0.00180074 -0.00446471 0.00979828
             0.0125064 0.0490959 0.983055 -0.0810311 0.00172652 0.00329375 0.00254167 0.00328865
             -0.000306368 0.00032376 0.000537191 0.00467079 0.999952 -0.0100996 0.000184974 -0.000162584
             0.000485907 0.0042626 0.00169671 0.00443461 0.000321776 -0.000296852 0.973235 -0.17953
1.116e+08    0.990012 -0.0726342 0.012824 0.0509904 -0.00226688 0.00182061 -0.00438996 0.0099064
             0.012805 0.0496897 0.982631 -0.0820148 0.00172303 0.0033398 0.00256819 0.00332551
             -0.000309758 0.000327626 0.000551649 0.00472625 0.99995 -0.0102322 0.00018222 -0.000163702
             0.00049199 0.00432454 0.00173829 0.00448037 0.000317474 -0.000299182 0.972372 -0.181722
1.1305e+08   0.989784 -0.0735509 0.0131538 0.0515779 -0.00225597 0.00184035 -0.0043145 0.0100138
             0.0131071 0.0502815 0.982202 -0.0829954 0.00171954 0.00338595 0.00259499 0.00336214
             -0.000313221 0.000331491 0.000566172 0.00478154 0.999948 -0.0103647 0.000179444 -0.000164785
             0.000498283 0.00438667 0.00178025 0.00452568 0.000313139 -0.000301456 0.971499 -0.183908
1.145e+08    0.989554 -0.0744666 0.0134867 0.0521629 -0.00224498 0.00185995 -0.00423837 0.0101204
             0.0134125 0.0508713 0.981769 -0.0839729 0.00171605 0.00343219 0.00262207 0.00339853
             -0.000316757 0.000335355 0.000580756 0.00483665 0.999946 -0.0104973 0.000176649 -0.000165832
             0.000504791 0.00444899 0.00182257 0.00457055 0.000308771 -0.000303674 0.970618 -0.186087
1.1595e+08   0.989321 -0.0753812 0.013823 0.0527454 -0.00223391 0.00187941 -0.00416157 0.0102263
             0.0137214 0.051459 0.981331 -0.0849472 0.00171258 0.00347851 0.00264941 0.00343467
             -0.000320369 0.000339218 0.000595399 0.00489159 0.999944 -0.0106299 0.000173833 -0.000166841
             0.000511517 0.00451148 0.00186526 0.00461495 0.000304371 -0.000305835 0.969726 -0.18826
1.174e+08    0.989085 -0.0762947 0.0141624 0.0533253 -0.00222276 0.00189874 -0.0040841 0.0103314
             0.0140336 0.0520448 0.980888 -0.0859183 0.00170911 0.00352494 0.00267703 0.00347057
             -0.000324055 0.000343083 0.000610098 0.00494636 0.999942 -0.0107624 0.000170998 -0.000167814
             0.000518465 0.00457416 0.00190831 0.00465891 0.000299941 -0.00030794 0.968826 -0.190427
1.1885e+08   0.988846 -0.0772072 0.014505 0.0539025 -0.00221153 0.00191793 -0.00400598 0.0104358
             0.0143492 0.0526285 0.980441 -0.0868862 0.00170565 0.00357145 0.00270491 0.00350623
             -0.000327817 0.000346949 0.000624848 0.00500096 0.99994 -0.010895 0.000168143 -0.000168751
             0.00052564 0.00463703 0.00195171 0.0047024 0.000295481 -0.000309988 0.967916 -0.192587
1.203e+08    0.988605 -0.0781187 0.0148507 0.0544772 -0.00220023 0.00193698 -0.00392721 0.0105393
             0.0146681 0.0532102 0.979989 -0.0878508 0.00170221 0.00361806 0.00273306 0.00354163
             -0.000331656 0.000350817 0.000639649 0.00505538 0.999938 -0.0110275 0.00016527 -0.000169649
             0.000533046 0.00470007 0.00199545 0.00474543 0.000290991 -0.000311978 0.966997 -0.19474
1.2175e+08   0.988361 -0.079029 0.0151996 0.0550492 -0.00218886 0.00195589 -0.00384781 0.0106422
             0.0149904 0.0537897 0.979533 -0.0888122 0.00169877 0.00366476 0.00276147 0.00357679
             -0.000335573 0.000354689 0.000654496 0.00510964 0.999935 -0.01116 0.000162379 -0.000170511
             0.000540687 0.0047633 0.00203953 0.00478799 0.000286473 -0.000313911 0.966069 -0.196887
1.232e+08    0.988114 -0.0799383 0.0155516 0.0556187 -0.00217742 0.00197465 -0.00376779 0.0107442
             0.015316 0.0543672 0.979072 -0.0897702 0.00169536 0.00371155 0.00279014 0.00361169
             -0.000339567 0.000358565 0.000669387 0.00516372 0.999933 -0.0112925 0.000159471 -0.000171335
             0.000548567 0.00482671 0.00208395 0.00483009 0.000281928 -0.000315785 0.965132 -0.199027
1.2465e+08   0.987864 -0.0808465 0.0159066 0.0561854 -0.00216592 0.00199328 -0.00368716 0.0108455
             0.0156449 0.0549426 0.978606 -0.090725 0.00169196 0.00375843 0.00281907 0.00364634
             -0.00034364 0.000362446 0.00068432 0.00521764 0.999931 -0.011425 0.000156545 -0.000172121
             0.000556689 0.00489029 0.0021287 0.00487172 0.000277355 -0.000317601 0.964186 -0.201161
1.261e+08    0.987612 -0.0817535 0.0162646 0.0567495 -0.00215434 0.00201177 -0.00360592 0.0109459
             0.015977 0.0555158 0.978136 -0.0916763 0.00168858 0.00380541 0.00284825 0.00368073
             -0.000347793 0.000366332 0.000699292 0.0052714 0.999929 -0.0115574 0.000153603 -0.00017287
             0.000565059 0.00495406 0.00217377 0.00491287 0.000272757 -0.000319359 0.963231 -0.203288
1.2755e+08   0.987357 -0.0826595 0.0166257 0.057311 -0.00214271 0.00203011 -0.00352409 0.0110456
             0.0163124 0.0560868 0.977661 -0.0926242 0.00168522 0.00385249 0.00287768 0.00371487
             -0.000352025 0.000370226 0.000714299 0.00532499 0.999926 -0.0116899 0.000150645 -0.00017358
             0.00057368 0.005018 0.00221916 0.00495355 0.000268133 -0.000321058 0.962268 -0.205407
1.29e+08     0.987099 -0.0835643 0.0169897 0.0578698 -0.00213101 0.00204832 -0.00344168 0.0111445
             0.0166511 0.0566557 0.977183 -0.0935687 0.00168188 0.00389966 0.00290737 0.00374874
             -0.000356339 0.000374128 0.000729341 0.00537842 0.999924 -0.0118223 0.000147672 -0.000174252
             0.000582555 0.00508213 0.00226486 0.00499375 0.000263485 -0.000322699 0.961295 -0.20752
1.3045e+08   0.986839 -0.0844679 0.0173567 0.0584259 -0.00211926 0.00206638 -0.00335869 0.0112427
             0.0169929 0.0572224 0.976699 -0.0945098 0.00167857 0.00394692 0.0029373 0.00378235
             -0.000360734 0.000378038 0.000744413 0.00543169 0.999922 -0.0119547 0.000144684 -0.000174886
             0.00059169 0.00514642 0.00231087 0.00503348 0.000258813 -0.00032428 0.960314 -0.209626
1.319e+08    0.986576 -0.0853704 0.0177266 0.0589793 -0.00210744 0.00208429 -0.00327514 0.01134
             0.017338 0.0577868 0.976211 -0.0954474 0.00167528 0.00399427 0.00296747 0.0038157
             -0.000365211 0.000381959 0.000759514 0.00548479 0.999919 -0.0120872 0.000141682 -0.000175481
             0.000601088 0.0052109 0.00235718 0.00507272 0.000254119 -0.000325801 0.959324 -0.211725
1.3335e+08   0.986311 -0.0862717 0.0180994 0.05953 -0.00209557 0.00210206 -0.00319103 0.0114365
             0.0176863 0.0583491 0.975719 -0.0963815 0.00167202 0.00404172 0.00299788 0.00384878
             -0.00036977 0.00038589 0.000774642 0.00553775 0.999917 -0.0122196 0.000138665 -0.000176038
             0.000610752 0.00527554 0.00240378 0.00511147 0.000249402 -0.000327263 0.958326 -0.213817
1.348e+08    0.986042 -0.0871719 0.018475 0.060078 -0.00208365 0.00211969 -0.00310639 0.0115322
             0.0180377 0.0589091 0.975223 -0.097312 0.00166878 0.00408926 0.00302854 0.0038816
             -0.000374413 0.000389834 0.000789794 0.00559054 0.999915 -0.0123519 0.000135636 -0.000176556
             0.000620688 0.00534036 0.00245067 0.00514975 0.000244665 -0.000328665 0.957319 -0.215902
1.3625e+08   0.985771 -0.0880708 0.0188535 0.0606233 -0.00207168 0.00213717 -0.00302121 0.0116271
             0.0183922 0.0594668 0.974722 -0.098239 0.00166558 0.0041369 0.00305943 0.00391414
             -0.000379139 0.000393791 0.000804968 0.00564318 0.999912 -0.0124843 0.000132593 -0.000177035
             0.000630898 0.00540536 0.00249784 0.00518753 0.000239907 -0.000330007 0.956304 -0.21798
1.377e+08    0.985498 -0.0889686 0.0192348 0.0611658 -0.00205966 0.00215451 -0.0029355 0.0117212
             0.0187499 0.0600223 0.974218 -0.0991624 0.00166241 0.00418463 0.00309055 0.00394642
             -0.00038395 0.000397761 0.000820161 0.00569567 0.99991 -0.0126167 0.000129539 -0.000177475
             0.000641387 0.00547052 0.00254529 0.00522482 0.000235129 -0.00033129 0.955281 -0.220051
1.3915e+08   0.985222 -0.0898651 0.0196189 0.0617057 -0.00204759 0.0021717 -0.00284929 0.0118145
             0.0191107 0.0605754 0.973708 -0.100082 0.00165928 0.00423245 0.0031219 0.00397842
             -0.000388845 0.000401747 0.000835373 0.00574801 0.999907 -0.012749 0.000126472 -0.000177876
             0.000652159 0.00553584 0.00259302 0.00526162 0.000230333 -0.000332511 0.954249 -0.222114
1.406e+08    0.984943 -0.0907605 0.0200057 0.0622428 -0.00203547 0.00218874 -0.00276257 0.0119069
             0.0194746 0.0611263 0.973195 -0.100998 0.00165618 0.00428037 0.00315348 0.00401015
             -0.000393826 0.000405749 0.000850601 0.0058002 0.999905 -0.0128813 0.000123395 -0.000178238
             0.000663217 0.00560134 0.002641 0.00529793 0.000225519 -0.000333673 0.953209 -0.224171
1.4205e+08   0.984661 -0.0916546 0.0203953 0.0627771 -0.00202332 0.00220564 -0.00267536 0.0119986
             0.0198416 0.0616748 0.972678 -0.101911 0.00165312 0.00432837 0.00318529 0.0040416
             -0.000398893 0.000409769 0.000865842 0.00585225 0.999902 -0.0130137 0.000120307 -0.000178561
             0.000674565 0.005667 0.00268925 0.00533375 0.000220688 -0.000334774 0.952161 -0.22622
1.435e+08    0.984377 -0.0925474 0.0207875 0.0633087 -0.00201112 0.0022224 -0.00258767 0.0120894
             0.0202116 0.062221 0.972156 -0.10282 0.00165009 0.00437648 0.00321731 0.00407277
             -0.000404046 0.000413808 0.000881096 0.00590415 0.9999 -0.013146 0.000117208 -0.000178844
             0.000686207 0.00573282 0.00273775 0.00536907 0.000215841 -0.000335814 0.951104 -0.228261
1.4495e+08   0.984091 -0.093439 0.0211824 0.0638375 -0.00199889 0.002239 -0.0024995 0.0121794
             0.0205847 0.0627648 0.971631 -0.103725 0.00164711 0.00442467 0.00324956 0.00410367
             -0.000409286 0.000417866 0.00089636 0.00595591 0.999897 -0.0132783 0.000114101 -0.000179088
             0.000698148 0.00579881 0.0027865 0.00540389 0.000210978 -0.000336794 0.95004 -0.230296
1.464e+08    0.983801 -0.0943293 0.02158 0.0643636 -0.00198661 0.00225546 -0.00241088 0.0122686
             0.0209608 0.0633062 0.971101 -0.104626 0.00164417 0.00447296 0.00328202 0.00413428
             -0.000414613 0.000421945 0.000911632 0.00600752 0.999895 -0.0134105 0.000110984 -0.000179293
             0.000710389 0.00586495 0.0028355 0.00543821 0.0002061 -0.000337712 0.948968 -0.232323
1.4785e+08   0.983509 -0.0952184 0.0219802 0.0648869 -0.00197431 0.00227178 -0.0023218 0.012357
             0.0213399 0.0638453 0.970567 -0.105524 0.00164127 0.00452134 0.0033147 0.00416461
             -0.000420028 0.000426046 0.000926912 0.006059 0.999892 -0.0135428 0.000107858 -0.000179458
             0.000722936 0.00593125 0.00288473 0.00547203 0.000201209 -0.00033857 0.947888 -0.234342
1.493e+08    0.983215 -0.0961062 0.022383 0.0654075 -0.00196197 0.00228794 -0.00223228 0.0124445
             0.0217219 0.0643819 0.97003 -0.106418 0.00163842 0.00456981 0.00334759 0.00419466
             -0.000425531 0.000430171 0.000942197 0.00611034 0.999889 -0.013675 0.000104725 -0.000179584
             0.000735791 0.00599771 0.00293419 0.00550535 0.000196304 -0.000339367 0.9468 -0.236354
1.5075e+08   0.982918 -0.0969927 0.0227884 0.0659252 -0.0019496 0.00230396 -0.00214232 0.0125312
             0.0221069 0.0649161 0.969488 -0.107308 0.00163562 0.00461837 0.00338069 0.00422443
             -0.000431122 0.000434321 0.000957487 0.00616155 0.999887 -0.0138073 0.000101584 -0.00017967
             0.000748959 0.00606432 0.00298387 0.00553816 0.000191388 -0.000340103 0.945705 -0.238359
1.522e+08    0.982619 -0.0978778 0.0231963 0.0664402 -0.0019372 0.00231983 -0.00205195 0.0126171
             0.0224949 0.0654479 0.968942 -0.108194 0.00163286 0.00466702 0.00341399 0.00425391
             -0.000436802 0.000438496 0.000972779 0.00621262 0.999884 -0.0139395 9.84355e-05 -0.000179716
             0.000762443 0.00613109 0.00303378 0.00557047 0.00018646 -0.000340778 0.944601 -0.240355
1.5365e+08   0.982316 -0.0987617 0.0236067 0.0669524 -0.00192478 0.00233556 -0.00196116 0.0127022
             0.0228857 0.0659773 0.968393 -0.109076 0.00163016 0.00471577 0.00344749 0.0042831
             -0.000442571 0.000442698 0.000988072 0.00626357 0.999881 -0.0140717 9.52811e-05 -0.000179723
             0.000776246 0.006198 0.0030839 0.00560228 0.000181521 -0.000341391 0.943491 -0.242345
1.551e+08    0.982012 -0.0996442 0.0240197 0.0674618 -0.00191233 0.00235114 -0.00186997 0.0127864
             0.0232795 0.0665041 0.96784 -0.109955 0.00162751 0.0047646 0.00348119 0.004312
             -0.00044843 0.000446929 0.00100336 0.00631438 0.999879 -0.0142039 9.21207e-05 -0.000179691
             0.000790373 0.00626506 0.00313423 0.00563358 0.000176573 -0.000341944 0.942372 -0.244327
1.5655e+08   0.981705 -0.100525 0.0244351 0.0679684 -0.00189986 0.00236657 -0.00177839 0.0128698
             0.0236762 0.0670285 0.967283 -0.110829 0.00162491 0.00481352 0.00351509 0.00434061
             -0.000454379 0.000451189 0.00101866 0.00636507 0.999876 -0.014336 8.89549e-05 -0.000179618
             0.000804825 0.00633226 0.00318476 0.00566437 0.000171616 -0.000342435 0.941247 -0.246301
1.58e+08     0.981395 -0.101405 0.0248529 0.0684722 -0.00188737 0.00238185 -0.00168643 0.0129523
             0.0240757 0.0675504 0.966722 -0.1117 0.00162236 0.00486254 0.00354919 0.00436893
             -0.000460418 0.00045548 0.00103395 0.00641564 0.999873 -0.0144682 8.57842e-05 -0.000179506
             0.000819608 0.00639961 0.00323548 0.00569466 0.00016665 -0.000342865 0.940113 -0.248267
1.5945e+08   0.981083 -0.102284 0.0252732 0.0689733 -0.00187486 0.00239699 -0.00159409 0.0130341
             0.024478 0.0680698 0.966157 -0.112567 0.00161988 0.00491164 0.00358347 0.00439695
             -0.000466547 0.000459803 0.00104923 0.00646608 0.99987 -0.0146003 8.26092e-05 -0.000179354
             0.000834724 0.0064671 0.0032864 0.00572443 0.000161677 -0.000343234 0.938973 -0.250226
1.609e+08    0.980768 -0.103161 0.0256959 0.0694715 -0.00186234 0.00241198 -0.00150139 0.013115
             0.0248832 0.0685867 0.965589 -0.11343 0.00161745 0.00496083 0.00361795 0.00442468
             -0.000472766 0.00046416 0.00106452 0.00651641 0.999867 -0.0147325 7.94304e-05 -0.000179163
             0.000850177 0.00653472 0.00333751 0.0057537 0.000156698 -0.000343542 0.937825 -0.252177
1.6235e+08   0.980451 -0.104037 0.0261209 0.0699669 -0.0018498 0.00242682 -0.00140834 0.013195
             0.0252912 0.069101 0.965017 -0.114289 0.00161508 0.00501011 0.00365261 0.00445212
             -0.000479077 0.000468552 0.00107979 0.00656661 0.999865 -0.0148646 7.62482e-05 -0.000178932
             0.00086597 0.00660248 0.00338879 0.00578245 0.000151712 -0.000343789 0.936671 -0.25412
1.638e+08    0.980131 -0.104911 0.0265483 0.0704595 -0.00183725 0.00244152 -0.00131495 0.0132743
             0.0257019 0.0696128 0.964441 -0.115143 0.00161277 0.00505948 0.00368745 0.00447926
             -0.000485478 0.00047298 0.00109506 0.0066167 0.999862 -0.0149967 7.30632e-05 -0.000178662
             0.000882106 0.00667038 0.00344024 0.0058107 0.000146722 -0.000343975 0.935509 -0.256055
1.6525e+08   0.979809 -0.105784 0.026978 0.0709493 -0.00182469 0.00245607 -0.00122123 0.0133526
             0.0261154 0.070122 0.963862 -0.115994 0.00161053 0.00510893 0.00372247 0.0045061
             -0.000491971 0.000477445 0.00111033 0.00666668 0.999859 -0.0151287 6.98759e-05 -0.000178352
             0.000898588 0.0067384 0.00349187 0.00583843 0.000141728 -0.0003441 0.93434 -0.257983
1.667e+08    0.979484 -0.106656 0.0274101 0.0714363 -0.00181212 0.00247048 -0.00112718 0.0134302
             0.0265317 0.0706287 0.963279 -0.116841 0.00160835 0.00515847 0.00375767 0.00453265
             -0.000498555 0.000481949 0.00112558 0.00671655 0.999856 -0.0152608 6.66868e-05 -0.000178002
             0.00091542 0.00680655 0.00354366 0.00586565 0.00013673 -0.000344164 0.933164 -0.259903
1.6815e+08   0.979157 -0.107526 0.0278444 0.0719205 -0.00179955 0.00248473 -0.00103282 0.0135069
             0.0269507 0.0711328 0.962692 -0.117684 0.00160624 0.00520809 0.00379304 0.00455889
             -0.00050523 0.000486493 0.00114083 0.0067663 0.999853 -0.0153929 6.34964e-05 -0.000177614
             0.000932605 0.00687482 0.0035956 0.00589236 0.000131729 -0.000344168 0.931981 -0.261815
1.696e+08    0.978827 -0.108395 0.0282809 0.0724018 -0.00178697 0.00249885 -0.000938151 0.0135828
             0.0273723 0.0716342 0.962102 -0.118522 0.00160419 0.0052578 0.00382859 0.00458484
             -0.000511997 0.000491079 0.00115607 0.00681595 0.99985 -0.0155249 6.03052e-05 -0.000177185
             0.000950145 0.00694322 0.0036477 0.00591856 0.000126727 -0.00034411 0.930792 -0.263719
1.7105e+08   0.978495 -0.109262 0.0287198 0.0728804 -0.00177439 0.00251282 -0.000843192 0.0136579
             0.0277967 0.0721331 0.961509 -0.119357 0.00160221 0.00530759 0.0038643 0.00461048
             -0.000518856 0.000495707 0.0011713 0.0068655 0.999847 -0.0156569 5.71138e-05 -0.000176718
             0.000968044 0.00701174 0.00369994 0.00594424 0.000121724 -0.000343992 0.929595 -0.265615
