# Hz S RI R 50
1e+08        0.991679 -0.0734738 0.00911443 0.0512834 0.00184387 -0.00100881 0.000775458 -0.000377622
             0.010321 0.0499708 0.988189 -0.088946 -0.00274179 0.00736466 -0.00104806 0.000603027
             -0.000131594 4.95654e-05 0.000278617 0.00557869 0.999363 -0.0128199 -3.19856e-06 -2.88261e-06
             -1.11668e-05 2.71337e-07 2.58586e-06 -1.65045e-05 -2.34099e-06 -3.92296e-06 -0.997923 0.0100385
1.0145e+08   0.991408 -0.0745022 0.0094199 0.0519788 0.00182954 -0.00101989 0.000771676 -0.00038225
             0.0106092 0.0506536 0.987819 -0.0901789 -0.00271535 0.00746539 -0.00104244 0.000610244
             -0.000135626 5.11406e-05 0.000287177 0.00565834 0.999363 -0.0130063 -3.23634e-06 -2.90808e-06
             -1.161e-05 3.28122e-07 2.10197e-06 -1.66099e-05 -2.38474e-06 -3.96055e-06 -0.997932 0.010187
1.029e+08    0.991133 -0.0755291 0.00972932 0.0526722 0.00181506 -0.00103083 0.00076785 -0.000386842
             0.0109012 0.0513347 0.987444 -0.0914095 -0.00268861 0.00756587 -0.00103676 0.000617399
             -0.000139709 5.27517e-05 0.000295849 0.00573793 0.999362 -0.0131927 -3.27446e-06 -2.93291e-06
             -1.20597e-05 3.87286e-07 1.61295e-06 -1.67101e-05 -2.42887e-06 -3.99739e-06 -0.997941 0.0103357
1.0435e+08   0.990854 -0.0765544 0.0100427 0.0533637 0.00180041 -0.00104162 0.00076398 -0.0003914
             0.0111969 0.052014 0.987064 -0.0926378 -0.00266156 0.00766611 -0.00103101 0.000624492
             -0.000143842 5.43991e-05 0.000304631 0.00581747 0.999362 -0.0133792 -3.3129e-06 -2.95709e-06
             -1.25159e-05 4.48869e-07 1.11887e-06 -1.68049e-05 -2.47339e-06 -4.03345e-06 -0.997951 0.0104844
1.058e+08    0.990572 -0.0775782 0.0103599 0.054053 0.0017856 -0.00105226 0.000760066 -0.000395923
             0.0114965 0.0526915 0.986679 -0.0938636 -0.00263421 0.0077661 -0.00102521 0.000631523
             -0.000148026 5.60833e-05 0.000313524 0.00589696 0.999361 -0.0135656 -3.35165e-06 -2.98061e-06
             -1.29786e-05 5.12911e-07 6.19785e-07 -1.68944e-05 -2.51829e-06 -4.06874e-06 -0.99796 0.0106333
1.0725e+08   0.990286 -0.0786004 0.0106811 0.0547403 0.00177063 -0.00106276 0.000756108 -0.00040041
             0.0117998 0.0533672 0.986289 -0.0950869 -0.00260657 0.00786583 -0.00101936 0.000638491
             -0.000152259 5.78046e-05 0.000322526 0.0059764 0.999361 -0.0137521 -3.39071e-06 -3.00348e-06
             -1.34477e-05 5.79453e-07 1.15778e-07 -1.69784e-05 -2.56356e-06 -4.10325e-06 -0.99797 0.0107823
1.087e+08    0.989997 -0.0796209 0.0110061 0.0554256 0.00175551 -0.0010731 0.000752108 -0.00040486
             0.0121069 0.0540411 0.985895 -0.0963078 -0.00257864 0.00796532 -0.00101344 0.000645395
             -0.000156542 5.95635e-05 0.000331637 0.00605578 0.999361 -0.0139386 -3.43007e-06 -3.02568e-06
             -1.39234e-05 6.48537e-07 -3.93085e-07 -1.7057e-05 -2.60918e-06 -4.13697e-06 -0.997979 0.0109314
1.1015e+08   0.989704 -0.0806399 0.011335 0.0561087 0.00174023 -0.00108329 0.000748066 -0.000409275
             0.0124177 0.0547131 0.985496 -0.0975262 -0.00255041 0.00806454 -0.00100747 0.000652235
             -0.000160874 6.13604e-05 0.000340856 0.00613511 0.99936 -0.0141252 -3.46972e-06 -3.04721e-06
             -1.44055e-05 7.20203e-07 -9.06734e-07 -1.71301e-05 -2.65515e-06 -4.1699e-06 -0.997989 0.0110806
1.116e+08    0.989408 -0.0816572 0.0116678 0.0567897 0.0017248 -0.00109334 0.000743981 -0.000413653
             0.0127322 0.0553833 0.985093 -0.0987421 -0.0025219 0.00816351 -0.00100144 0.000659011
             -0.000165255 6.31958e-05 0.000350184 0.00621439 0.99936 -0.0143117 -3.50965e-06 -3.06807e-06
             -1.48941e-05 7.94493e-07 -1.4251e-06 -1.71977e-05 -2.70146e-06 -4.20202e-06 -0.997999 0.01123
1.1305e+08   0.989108 -0.0826729 0.0120043 0.0574685 0.00170922 -0.00110322 0.000739855 -0.000417994
             0.0130504 0.0560516 0.984684 -0.0999555 -0.00249311 0.00826221 -0.000995358 0.000665721
             -0.000169684 6.507e-05 0.00035962 0.00629361 0.999359 -0.0144983 -3.54985e-06 -3.08826e-06
             -1.53892e-05 8.71448e-07 -1.94811e-06 -1.72597e-05 -2.7481e-06 -4.23335e-06 -0.998008 0.0113795
1.145e+08    0.988805 -0.0836868 0.0123447 0.0581452 0.00169349 -0.00111296 0.000735687 -0.000422297
             0.0133723 0.0567179 0.984271 -0.101166 -0.00246404 0.00836066 -0.000989223 0.000672366
             -0.000174162 6.69835e-05 0.000369162 0.00637277 0.999359 -0.0146849 -3.59032e-06 -3.10776e-06
             -1.58908e-05 9.51111e-07 -2.47569e-06 -1.73162e-05 -2.79505e-06 -4.26387e-06 -0.998018 0.0115291
1.1595e+08   0.988498 -0.0846991 0.0126888 0.0588197 0.00167761 -0.00112253 0.000731479 -0.000426563
             0.0136979 0.0573823 0.983854 -0.102374 -0.00243469 0.00845884 -0.000983034 0.000678944
             -0.000178689 6.89367e-05 0.000378811 0.00645188 0.999358 -0.0148715 -3.63104e-06 -3.12657e-06
             -1.63989e-05 1.03352e-06 -3.00778e-06 -1.7367e-05 -2.84232e-06 -4.29358e-06 -0.998028 0.0116789
1.174e+08    0.988188 -0.0857097 0.0130367 0.059492 0.00166159 -0.00113195 0.00072723 -0.000430791
             0.0140272 0.0580448 0.983431 -0.10358 -0.00240507 0.00855675 -0.000976793 0.000685456
             -0.000183262 7.09299e-05 0.000388566 0.00653093 0.999358 -0.0150582 -3.67201e-06 -3.1447e-06
             -1.69135e-05 1.11873e-06 -3.5443e-06 -1.74121e-05 -2.8899e-06 -4.32247e-06 -0.998038 0.0118288
1.1885e+08   0.987875 -0.0867186 0.0133884 0.060162 0.00164542 -0.00114121 0.000722941 -0.000434981
             0.0143601 0.0587053 0.983005 -0.104783 -0.00237518 0.00865439 -0.000970501 0.000691901
             -0.000187883 7.29637e-05 0.000398426 0.00660992 0.999357 -0.0152448 -3.71322e-06 -3.16214e-06
             -1.74345e-05 1.20676e-06 -4.08518e-06 -1.74516e-05 -2.93776e-06 -4.35053e-06 -0.998049 0.0119788
1.203e+08    0.987558 -0.0877257 0.0137438 0.0608298 0.00162911 -0.00115031 0.000718613 -0.000439132
             0.0146966 0.0593639 0.982573 -0.105983 -0.00234501 0.00875176 -0.000964158 0.000698279
             -0.000192551 7.50383e-05 0.000408392 0.00668885 0.999357 -0.0154315 -3.75466e-06 -3.17888e-06
             -1.79621e-05 1.29768e-06 -4.63035e-06 -1.74854e-05 -2.9859e-06 -4.37777e-06 -0.998059 0.0121289
1.2175e+08   0.987237 -0.0887311 0.0141029 0.0614953 0.00161266 -0.00115925 0.000714245 -0.000443244
             0.0150367 0.0600204 0.982137 -0.107181 -0.00231459 0.00884886 -0.000957766 0.000704588
             -0.000197266 7.71543e-05 0.000418462 0.00676773 0.999356 -0.0156182 -3.79632e-06 -3.19492e-06
             -1.84961e-05 1.39151e-06 -5.17974e-06 -1.75134e-05 -3.03432e-06 -4.40418e-06 -0.998069 0.0122792
1.232e+08    0.986913 -0.0897347 0.0144656 0.0621585 0.00159607 -0.00116803 0.000709839 -0.000447318
             0.0153805 0.0606749 0.981697 -0.108376 -0.0022839 0.00894569 -0.000951325 0.00071083
             -0.000202027 7.93119e-05 0.000428636 0.00684655 0.999356 -0.015805 -3.8382e-06 -3.21025e-06
             -1.90367e-05 1.48831e-06 -5.73327e-06 -1.75356e-05 -3.083e-06 -4.42976e-06 -0.998079 0.0124296
1.2465e+08   0.986586 -0.0907366 0.0148321 0.0628194 0.00157935 -0.00117664 0.000705395 -0.000451351
             0.0157278 0.0613273 0.981252 -0.109568 -0.00225296 0.00904224 -0.000944836 0.000717002
             -0.000206834 8.15117e-05 0.000438913 0.00692531 0.999355 -0.0159917 -3.88028e-06 -3.22488e-06
             -1.95837e-05 1.58812e-06 -6.29088e-06 -1.7552e-05 -3.13194e-06 -4.4545e-06 -0.99809 0.0125801
1.261e+08    0.986256 -0.0917366 0.0152022 0.063478 0.00156249 -0.00118509 0.000700912 -0.000455345
             0.0160787 0.0619777 0.980803 -0.110757 -0.00222176 0.00913851 -0.0009383 0.000723106
             -0.000211687 8.37539e-05 0.000449294 0.00700401 0.999355 -0.0161785 -3.92255e-06 -3.23881e-06
             -2.01372e-05 1.69097e-06 -6.85249e-06 -1.75626e-05 -3.18112e-06 -4.47839e-06 -0.9981 0.0127308
1.2755e+08   0.985922 -0.0927348 0.0155759 0.0641342 0.00154549 -0.00119337 0.000696393 -0.0004593
             0.0164332 0.062626 0.980349 -0.111944 -0.00219031 0.00923451 -0.000931718 0.00072914
             -0.000216586 8.60389e-05 0.000459776 0.00708265 0.999354 -0.0163653 -3.96501e-06 -3.25202e-06
             -2.06973e-05 1.79692e-06 -7.41803e-06 -1.75674e-05 -3.23053e-06 -4.50144e-06 -0.998111 0.0128816
1.29e+08     0.985585 -0.0937312 0.0159533 0.0647881 0.00152837 -0.00120149 0.000691836 -0.000463214
             0.0167912 0.0632722 0.979891 -0.113127 -0.00215862 0.00933022 -0.000925091 0.000735104
             -0.000221529 8.83672e-05 0.000470361 0.00716122 0.999353 -0.0165521 -4.00765e-06 -3.26452e-06
             -2.12638e-05 1.90601e-06 -7.98743e-06 -1.75662e-05 -3.28017e-06 -4.52365e-06 -0.998121 0.0130326
1.3045e+08   0.985244 -0.0947257 0.0163342 0.0654395 0.00151112 -0.00120944 0.000687243 -0.000467087
             0.0171527 0.0639163 0.979428 -0.114308 -0.00212668 0.00942565 -0.00091842 0.000740998
             -0.000226517 9.07392e-05 0.000481046 0.00723974 0.999353 -0.016739 -4.05046e-06 -3.2763e-06
             -2.18368e-05 2.01827e-06 -8.56062e-06 -1.75592e-05 -3.33002e-06 -4.545e-06 -0.998132 0.0131837
1.319e+08    0.984901 -0.0957184 0.0167187 0.0660886 0.00149374 -0.00121722 0.000682614 -0.00047092
             0.0175177 0.0645582 0.978961 -0.115486 -0.00209449 0.00952079 -0.000911705 0.000746821
             -0.000231549 9.31551e-05 0.000491833 0.0073182 0.999352 -0.0169259 -4.09343e-06 -3.28737e-06
             -2.24162e-05 2.13377e-06 -9.13752e-06 -1.75463e-05 -3.38008e-06 -4.56549e-06 -0.998143 0.0133349
1.3335e+08   0.984554 -0.0967092 0.0171067 0.0667352 0.00147623 -0.00122483 0.000677949 -0.000474712
             0.0178862 0.065198 0.97849 -0.116662 -0.00206207 0.00961565 -0.000904947 0.000752573
             -0.000236625 9.56154e-05 0.000502719 0.00739659 0.999351 -0.0171128 -4.13656e-06 -3.29771e-06
             -2.30022e-05 2.25253e-06 -9.71806e-06 -1.75275e-05 -3.43033e-06 -4.58514e-06 -0.998154 0.0134863
1.348e+08    0.984203 -0.0976982 0.0174983 0.0673794 0.0014586 -0.00123227 0.000673248 -0.000478462
             0.0182582 0.0658356 0.978014 -0.117834 -0.00202942 0.00971022 -0.000898148 0.000758254
             -0.000241745 9.81204e-05 0.000513705 0.00747492 0.99935 -0.0172997 -4.17982e-06 -3.30733e-06
             -2.35947e-05 2.37461e-06 -1.03022e-05 -1.75027e-05 -3.48077e-06 -4.60392e-06 -0.998164 0.0136378
1.3625e+08   0.98385 -0.0986852 0.0178934 0.0680211 0.00144085 -0.00123954 0.000668513 -0.000482171
             0.0186337 0.066471 0.977534 -0.119003 -0.00199653 0.0098045 -0.000891307 0.000763864
             -0.000246908 0.000100671 0.00052479 0.00755319 0.99935 -0.0174867 -4.22322e-06 -3.31623e-06
             -2.41936e-05 2.50006e-06 -1.08898e-05 -1.74719e-05 -3.53139e-06 -4.62184e-06 -0.998175 0.0137894
1.377e+08    0.983493 -0.0996703 0.0182919 0.0686604 0.00142298 -0.00124664 0.000663744 -0.000485838
             0.0190125 0.0671042 0.97705 -0.12017 -0.00196341 0.00989849 -0.000884427 0.000769402
             -0.000252114 0.000103266 0.000535974 0.00763139 0.999349 -0.0176736 -4.26675e-06 -3.32441e-06
             -2.4799e-05 2.6289e-06 -1.14808e-05 -1.74351e-05 -3.58217e-06 -4.63889e-06 -0.998186 0.0139412
1.3915e+08   0.983133 -0.100653 0.018694 0.0692971 0.00140499 -0.00125356 0.000658941 -0.000489464
             0.0193948 0.0677352 0.976562 -0.121333 -0.00193007 0.00999219 -0.000877508 0.000774867
             -0.000257362 0.000105908 0.000547256 0.00770953 0.999348 -0.0178606 -4.31039e-06 -3.33185e-06
             -2.54109e-05 2.7612e-06 -1.20752e-05 -1.73924e-05 -3.63311e-06 -4.65508e-06 -0.998197 0.0140931
1.406e+08    0.98277 -0.101635 0.0190995 0.0699314 0.00138689 -0.00126031 0.000654104 -0.000493047
             0.0197806 0.0683639 0.976069 -0.122494 -0.00189651 0.0100856 -0.00087055 0.000780261
             -0.000262653 0.000108595 0.000558635 0.00778761 0.999347 -0.0180477 -4.35414e-06 -3.33857e-06
             -2.60293e-05 2.897e-06 -1.26729e-05 -1.73437e-05 -3.68419e-06 -4.67041e-06 -0.998208 0.0142452
1.4205e+08   0.982403 -0.102614 0.0195084 0.0705631 0.00136867 -0.00126689 0.000649234 -0.000496588
             0.0201697 0.0689904 0.975572 -0.123651 -0.00186273 0.0101787 -0.000863555 0.000785581
             -0.000267985 0.000111329 0.00057011 0.00786562 0.999346 -0.0182347 -4.39799e-06 -3.34456e-06
             -2.66541e-05 3.03634e-06 -1.32738e-05 -1.72889e-05 -3.73541e-06 -4.68486e-06 -0.99822 0.0143974
1.435e+08    0.982033 -0.103591 0.0199207 0.0711922 0.00135034 -0.00127329 0.000644332 -0.000500086
             0.0205621 0.0696146 0.975071 -0.124806 -0.00182874 0.0102715 -0.000856524 0.000790829
             -0.000273359 0.00011411 0.000581683 0.00794357 0.999346 -0.0184218 -4.44193e-06 -3.34982e-06
             -2.72854e-05 3.17926e-06 -1.38779e-05 -1.72281e-05 -3.78676e-06 -4.69844e-06 -0.998231 0.0145497
1.4495e+08   0.981661 -0.104567 0.0203364 0.0718188 0.0013319 -0.00127951 0.000639397 -0.000503541
             0.020958 0.0702365 0.974566 -0.125957 -0.00179453 0.0103641 -0.000849457 0.000796003
             -0.000278774 0.000116939 0.00059335 0.00802145 0.999345 -0.0186089 -4.48596e-06 -3.35434e-06
             -2.79232e-05 3.32583e-06 -1.4485e-05 -1.71613e-05 -3.83823e-06 -4.71116e-06 -0.998242 0.0147022
1.464e+08    0.981285 -0.10554 0.0207554 0.0724428 0.00131335 -0.00128556 0.000634431 -0.000506954
             0.0213572 0.0708561 0.974056 -0.127105 -0.00176011 0.0104563 -0.000842356 0.000801104
             -0.00028423 0.000119814 0.000605113 0.00809926 0.999344 -0.018796 -4.53005e-06 -3.35814e-06
             -2.85674e-05 3.47607e-06 -1.50951e-05 -1.70884e-05 -3.8898e-06 -4.72299e-06 -0.998253 0.0148549
1.4785e+08   0.980906 -0.106511 0.0211778 0.0730642 0.0012947 -0.00129142 0.000629434 -0.000510323
             0.0217597 0.0714734 0.973543 -0.128251 -0.00172549 0.0105482 -0.00083522 0.000806132
             -0.000289726 0.000122738 0.000616971 0.00817701 0.999343 -0.0189831 -4.57421e-06 -3.3612e-06
             -2.92181e-05 3.63004e-06 -1.57082e-05 -1.70094e-05 -3.94148e-06 -4.73396e-06 -0.998264 0.0150077
1.493e+08    0.980524 -0.107481 0.0216036 0.073683 0.00127594 -0.00129711 0.000624406 -0.000513649
             0.0221655 0.0720883 0.973025 -0.129393 -0.00169067 0.0106398 -0.000828052 0.000811086
             -0.000295262 0.00012571 0.000628922 0.0082547 0.999342 -0.0191703 -4.61843e-06 -3.36353e-06
             -2.98752e-05 3.78779e-06 -1.63241e-05 -1.69244e-05 -3.99324e-06 -4.74405e-06 -0.998276 0.0151606
1.5075e+08   0.980138 -0.108448 0.0220326 0.0742992 0.00125708 -0.00130262 0.000619348 -0.000516931
             0.0225746 0.0727009 0.972504 -0.130532 -0.00165565 0.0107312 -0.000820852 0.000815965
             -0.000300838 0.000128731 0.000640967 0.00833231 0.999341 -0.0193575 -4.66269e-06 -3.36513e-06
             -3.05388e-05 3.94935e-06 -1.69428e-05 -1.68334e-05 -4.04508e-06 -4.75326e-06 -0.998287 0.0153137
1.522e+08    0.97975 -0.109413 0.0224649 0.0749128 0.00123812 -0.00130795 0.000614259 -0.000520169
             0.0229869 0.0733111 0.971978 -0.131668 -0.00162044 0.0108222 -0.000813621 0.000820771
             -0.000306453 0.0001318 0.000653105 0.00840986 0.99934 -0.0195447 -4.70699e-06 -3.36599e-06
             -3.12089e-05 4.11479e-06 -1.75643e-05 -1.67362e-05 -4.09699e-06 -4.7616e-06 -0.998298 0.0154669
1.5365e+08   0.979359 -0.110376 0.0229005 0.0755236 0.00121906 -0.0013131 0.000609142 -0.000523364
             0.0234026 0.0739189 0.971448 -0.1328 -0.00158503 0.0109129 -0.00080636 0.000825502
             -0.000312106 0.000134919 0.000665335 0.00848734 0.999339 -0.019732 -4.75132e-06 -3.36612e-06
             -3.18853e-05 4.28414e-06 -1.81884e-05 -1.6633e-05 -4.14895e-06 -4.76907e-06 -0.99831 0.0156202
1.551e+08    0.978964 -0.111337 0.0233393 0.0761318 0.0011999 -0.00131807 0.000603995 -0.000526514
             0.0238214 0.0745243 0.970915 -0.13393 -0.00154944 0.0110033 -0.000799069 0.000830158
             -0.000317799 0.000138087 0.000677656 0.00856475 0.999338 -0.0199193 -4.79567e-06 -3.36552e-06
             -3.25683e-05 4.45745e-06 -1.8815e-05 -1.65237e-05 -4.20097e-06 -4.77565e-06 -0.998321 0.0157738
1.5655e+08   0.978567 -0.112296 0.0237813 0.0767373 0.00118065 -0.00132285 0.00059882 -0.00052962
             0.0242435 0.0751273 0.970377 -0.135056 -0.00151366 0.0110934 -0.00079175 0.00083474
             -0.000323529 0.000141305 0.000690069 0.0086421 0.999337 -0.0201066 -4.84004e-06 -3.36418e-06
             -3.32576e-05 4.63477e-06 -1.94442e-05 -1.64084e-05 -4.25303e-06 -4.78137e-06 -0.998333 0.0159274
1.58e+08     0.978166 -0.113253 0.0242265 0.0773402 0.0011613 -0.00132746 0.000593617 -0.000532682
             0.0246688 0.0757278 0.969835 -0.136179 -0.0014777 0.0111833 -0.000784403 0.000839247
             -0.000329297 0.000144574 0.000702572 0.00871937 0.999336 -0.0202939 -4.8844e-06 -3.36212e-06
             -3.39534e-05 4.81615e-06 -2.00759e-05 -1.62869e-05 -4.30512e-06 -4.7862e-06 -0.998344 0.0160812
1.5945e+08   0.977762 -0.114208 0.0246749 0.0779403 0.00114186 -0.00133188 0.000588386 -0.000535699
             0.0250972 0.0763259 0.96929 -0.137299 -0.00144156 0.0112728 -0.00077703 0.000843679
             -0.000335102 0.000147892 0.000715166 0.00879658 0.999334 -0.0204813 -4.92877e-06 -3.35932e-06
             -3.46555e-05 5.00164e-06 -2.07099e-05 -1.61594e-05 -4.35723e-06 -4.79016e-06 -0.998356 0.0162352
1.609e+08    0.977356 -0.115161 0.0251264 0.0785376 0.00112234 -0.00133611 0.000583128 -0.000538671
             0.0255289 0.0769215 0.96874 -0.138416 -0.00140525 0.011362 -0.000769631 0.000848036
             -0.000340944 0.000151262 0.000727848 0.00887372 0.999333 -0.0206686 -4.97312e-06 -3.35579e-06
             -3.53641e-05 5.19128e-06 -2.13462e-05 -1.60258e-05 -4.40935e-06 -4.79325e-06 -0.998367 0.0163893
1.6235e+08   0.976946 -0.116111 0.0255811 0.0791323 0.00110273 -0.00134016 0.000577843 -0.000541598
             0.0259637 0.0775147 0.968187 -0.139529 -0.00136877 0.0114508 -0.000762207 0.000852318
             -0.000346823 0.000154683 0.00074062 0.00895079 0.999332 -0.020856 -5.01744e-06 -3.35153e-06
             -3.60791e-05 5.38512e-06 -2.19848e-05 -1.58861e-05 -4.46148e-06 -4.79546e-06 -0.998379 0.0165435
1.638e+08    0.976534 -0.11706 0.0260389 0.0797241 0.00108303 -0.00134403 0.000572533 -0.00054448
             0.0264016 0.0781053 0.96763 -0.140639 -0.00133211 0.0115394 -0.00075476 0.000856525
             -0.000352737 0.000158155 0.000753479 0.00902778 0.999331 -0.0210435 -5.06174e-06 -3.34654e-06
             -3.68005e-05 5.58322e-06 -2.26256e-05 -1.57404e-05 -4.51359e-06 -4.7968e-06 -0.998391 0.0166979
1.6525e+08   0.976119 -0.118006 0.0264997 0.0803132 0.00106325 -0.00134771 0.000567196 -0.000547317
             0.0268426 0.0786935 0.967069 -0.141746 -0.0012953 0.0116277 -0.000747289 0.000860656
             -0.000358688 0.000161679 0.000766427 0.00910471 0.999329 -0.0212309 -5.106e-06 -3.34082e-06
             -3.75283e-05 5.78561e-06 -2.32685e-05 -1.55886e-05 -4.56569e-06 -4.79727e-06 -0.998402 0.0168525
1.667e+08    0.9757 -0.11895 0.0269636 0.0808995 0.00104339 -0.00135121 0.000561834 -0.000550109
             0.0272867 0.0792791 0.966505 -0.14285 -0.00125832 0.0117157 -0.000739796 0.000864712
             -0.000364674 0.000165255 0.000779461 0.00918157 0.999328 -0.0214184 -5.15021e-06 -3.33438e-06
             -3.82624e-05 5.99235e-06 -2.39134e-05 -1.54307e-05 -4.61777e-06 -4.79686e-06 -0.998414 0.0170072
1.6815e+08   0.975279 -0.119892 0.0274306 0.081483 0.00102344 -0.00135452 0.000556447 -0.000552856
             0.027734 0.0798622 0.965936 -0.14395 -0.00122118 0.0118033 -0.000732281 0.000868692
             -0.000370695 0.000168883 0.000792582 0.00925835 0.999327 -0.0216059 -5.19436e-06 -3.32721e-06
             -3.9003e-05 6.20348e-06 -2.45603e-05 -1.52668e-05 -4.6698e-06 -4.79559e-06 -0.998426 0.017162
1.696e+08    0.974855 -0.120832 0.0279006 0.0820637 0.00100343 -0.00135765 0.000551036 -0.000555556
