# Hz S RI R 50
1e+08        0.992319 -0.060356 0.0104395 0.0459364 -0.000233326 0.000108327 0.000257383 0.00446568
             0.0103436 0.0463755 0.985565 -0.0735227 0.000405229 0.00437103 0.00193129 0.00537351
             -0.000195769 0.000137552 0.000413223 0.00438181 0.999915 -0.00952645 -2.17423e-05 4.12997e-05
             0.000260865 0.0044162 0.00200252 0.0053061 -2.02228e-05 4.42129e-05 0.969166 -0.171072
1.0145e+08   0.991887 -0.0616511 0.0104824 0.047555 -0.000245672 0.000104901 0.00037237 0.00449721
             0.0105036 0.0471504 0.985417 -0.0756031 0.000418939 0.00444874 0.00212275 0.00538877
             -0.000291443 8.30204e-05 0.000433855 0.00443279 0.99992 -0.00970349 -2.44493e-05 4.34749e-05
             0.000360051 0.00453352 0.00205009 0.00543056 -2.04872e-05 4.20108e-05 0.967052 -0.17284
1.029e+08    0.991875 -0.0620461 0.0110945 0.047206 -0.000260857 0.000110846 0.000269698 0.00456731
             0.0109295 0.0476243 0.984698 -0.0755486 0.000446234 0.00451345 0.00203245 0.00545271
             -0.000209823 0.000144581 0.000434054 0.00450345 0.999885 -0.00986274 -2.25699e-05 4.37753e-05
             0.000279111 0.00455154 0.00211517 0.00543014 -2.37971e-05 4.14325e-05 0.967581 -0.175309
1.0435e+08   0.991448 -0.0633469 0.0110098 0.0487737 -0.000268403 0.000122938 0.000386196 0.00466761
             0.0110928 0.0483982 0.984686 -0.0775756 0.000466663 0.00456067 0.00222601 0.00555555
             -0.000304647 8.89451e-05 0.000456384 0.00455581 0.999851 -0.0099781 -2.56334e-05 4.44571e-05
             0.000377938 0.00467007 0.00215551 0.00555164 -2.67585e-05 4.4308e-05 0.965361 -0.177909
1.058e+08    0.991419 -0.0637314 0.0117608 0.0484767 -0.000267526 0.000130189 0.000303625 0.00467273
             0.0115306 0.0488652 0.983814 -0.0775729 0.000468609 0.00460779 0.00216282 0.00553392
             -0.000224337 0.000151622 0.000455437 0.00462467 0.999859 -0.0100783 -2.39087e-05 4.6278e-05
             0.000298217 0.00468737 0.00222988 0.00555226 -2.64283e-05 4.81582e-05 0.965694 -0.179542
1.0725e+08   0.990997 -0.0650375 0.0115567 0.0499753 -0.000268004 0.000127823 0.000381626 0.00482945
             0.0116969 0.0496376 0.98393 -0.0795267 0.000463594 0.00467179 0.00230668 0.00570785
             -0.000318487 9.52536e-05 0.000479323 0.0046787 0.999895 -0.0102098 -2.64122e-05 4.55937e-05
             0.000396596 0.00480708 0.00226334 0.0056697 -2.39598e-05 4.9392e-05 0.963873 -0.182861
1.087e+08    0.990952 -0.0654114 0.012437 0.0497478 -0.000278018 0.000122903 0.000353347 0.00479319
             0.0121462 0.0500981 0.982916 -0.0795946 0.000471492 0.00474886 0.00231451 0.00563163
             -0.000239099 0.000159287 0.000477606 0.00474548 0.999915 -0.0103806 -2.56581e-05 4.85861e-05
             0.000318113 0.0048238 0.00234658 0.00567236 -2.30493e-05 4.76378e-05 0.963568 -0.183913
1.1015e+08   0.990535 -0.0667226 0.0121241 0.0511601 -0.000294279 0.000125887 0.000367621 0.00497313
             0.0123157 0.050869 0.983149 -0.0814568 0.000496785 0.00481912 0.00237644 0.00583334
             -0.000332318 0.000101801 0.000502707 0.0048012 0.999892 -0.0105513 -2.69253e-05 4.71159e-05
             0.00041619 0.0049447 0.00237354 0.00578469 -2.55381e-05 4.61504e-05 0.962488 -0.187571
1.116e+08    0.990474 -0.0670864 0.0131218 0.0510183 -0.000305587 0.000137731 0.00040779 0.00493457
             0.0127766 0.0513225 0.982005 -0.0816126 0.000522491 0.00487058 0.00247301 0.00575318
             -0.000254206 0.000167028 0.000500369 0.00486575 0.999852 -0.0106817 -2.76448e-05 5.05505e-05
             0.000338998 0.00496067 0.00246508 0.00579045 -2.90925e-05 4.79369e-05 0.961331 -0.188504
1.1305e+08   0.990062 -0.068402 0.012713 0.0523293 -0.000306903 0.000148222 0.00035719 0.0050962
             0.0129488 0.0520917 0.982341 -0.0833666 0.000531132 0.00491474 0.00245204 0.00592906
             -0.000346462 0.00010864 0.000526374 0.00492344 0.999843 -0.0107818 -2.74148e-05 4.92076e-05
             0.00043661 0.00508273 0.00248617 0.00589664 -3.00364e-05 5.19366e-05 0.961052 -0.191993
1.145e+08    0.989985 -0.0687559 0.0138141 0.0522872 -0.000305817 0.000148971 0.000454549 0.00509539
             0.0134215 0.0525387 0.981081 -0.0836259 0.000526833 0.00497179 0.00262223 0.00589638
             -0.000269651 0.000174877 0.000523863 0.00498567 0.999873 -0.0108986 -2.95113e-05 5.21678e-05
             0.000360693 0.00509809 0.00258524 0.00590642 -2.79844e-05 5.43998e-05 0.959138 -0.193309
1.1595e+08   0.989578 -0.0700759 0.0133241 0.0534834 -0.000312883 0.000143688 0.000362147 0.00520438
             0.0135966 0.0533057 0.981505 -0.085257 0.00052947 0.00504575 0.00254852 0.00600253
             -0.000361172 0.000115827 0.000550471 0.00504528 0.999904 -0.0110579 -2.8091e-05 5.17361e-05
             0.000457898 0.00522132 0.00260121 0.00600563 -2.61731e-05 5.35345e-05 0.959415 -0.196186
1.174e+08    0.989484 -0.0704199 0.0145129 0.0535531 -0.0003289 0.000143606 0.000484233 0.00526724
             0.0140806 0.053746 0.980147 -0.0856327 0.00055064 0.00511999 0.00275011 0.00605021
             -0.000285312 0.00018327 0.000548008 0.00510509 0.999895 -0.0112344 -3.1061e-05 5.35079e-05
             0.000383325 0.00523608 0.00270703 0.00602019 -2.75415e-05 5.1578e-05 0.957112 -0.198237
1.1885e+08   0.989084 -0.071744 0.0139581 0.0546236 -0.000343588 0.000153923 0.000388582 0.00530904
             0.0142583 0.054511 0.980642 -0.0871289 0.000579373 0.00517708 0.0026734 0.00606854
             -0.000375995 0.000123217 0.000574868 0.00516671 0.999856 -0.011381 -2.91468e-05 5.45354e-05
             0.000480159 0.00536043 0.00271869 0.00611161 -3.11709e-05 5.21666e-05 0.957492 -0.200281
1.203e+08    0.988973 -0.0720784 0.0152172 0.0548147 -0.000348158 0.000166869 0.000493959 0.00543772
             0.014754 0.0549447 0.979204 -0.0876317 0.000595167 0.00522079 0.00285316 0.00619864
             -0.000301296 0.000191888 0.000572823 0.0052241 0.999832 -0.0114874 -3.20977e-05 5.47664e-05
             0.000406944 0.00537454 0.0028303 0.00613162 -3.33044e-05 5.58167e-05 0.955302 -0.203138
1.2175e+08   0.988578 -0.0734061 0.0146154 0.055751 -0.000346624 0.000171424 0.000434894 0.00542278
             0.0149342 0.0557073 0.97975 -0.0889834 0.000594005 0.00527141 0.00282431 0.00614315
             -0.000391059 0.000130773 0.000599537 0.00528769 0.999851 -0.0115931 -3.06894e-05 5.72307e-05
             0.000503294 0.00549998 0.00283855 0.00621458 -3.20818e-05 5.92576e-05 0.955289 -0.204431
1.232e+08    0.988451 -0.0737312 0.0159262 0.0560707 -0.000350572 0.000167108 0.000488772 0.00559488
             0.0154414 0.0561344 0.978251 -0.0896213 0.000592815 0.00534023 0.00293797 0.00632634
             -0.000317864 0.000200684 0.000598238 0.00534279 0.999887 -0.0117375 -3.27703e-05 5.62862e-05
             0.000431413 0.00551361 0.00295489 0.00624062 -2.97602e-05 5.95669e-05 0.953661 -0.207861
1.2465e+08   0.988062 -0.0750623 0.0152961 0.0568668 -0.000365022 0.000164369 0.000492627 0.00555481
             0.015624 0.0568944 0.978829 -0.0908217 0.000608549 0.00541628 0.00299005 0.00623798
             -0.000406525 0.000138953 0.00062461 0.00540826 0.999894 -0.011913 -3.25494e-05 5.96721e-05
             0.000527463 0.00564016 0.00296078 0.00631464 -2.98899e-05 5.76349e-05 0.952899 -0.208758
1.261e+08    0.987918 -0.0753783 0.0166396 0.0573195 -0.000382197 0.000172075 0.000479836 0.00573202
             0.0161427 0.057315 0.977291 -0.0915999 0.000637756 0.0054794 0.00301888 0.00642499
             -0.000334495 0.000209848 0.000624318 0.00546104 0.999861 -0.0120741 -3.32105e-05 5.82431e-05
             0.000456949 0.00565314 0.00308075 0.00634706 -3.30705e-05 5.7109e-05 0.952063 -0.212314
1.2755e+08   0.987535 -0.0767126 0.0160005 0.057972 -0.000390721 0.000186271 0.000549684 0.00570786
             0.0163275 0.0580722 0.97788 -0.0926451 0.00066019 0.00552515 0.00315496 0.00635621
             -0.000422249 0.000147336 0.000649897 0.00552835 0.999826 -0.0121923 -3.45127e-05 6.16836e-05
             0.000552573 0.00578085 0.00308526 0.00641182 -3.61134e-05 5.99587e-05 0.950467 -0.213307
1.29e+08     0.987374 -0.0770195 0.0173569 0.0585595 -0.0003901 0.000194846 0.000480087 0.00585035
             0.0168577 0.0584864 0.976323 -0.093566 0.000664244 0.00557069 0.00311237 0.00649648
             -0.000351448 0.000219343 0.000651043 0.00557909 0.99983 -0.0122927 -3.37421e-05 6.0711e-05
             0.000483547 0.00579322 0.00320779 0.00645089 -3.60095e-05 6.39557e-05 0.950349 -0.216495
1.3045e+08   0.986997 -0.0783565 0.0167282 0.059068 -0.000391281 0.000192844 0.000594532 0.00587724
             0.0170446 0.0592405 0.976902 -0.0944549 0.000661297 0.005633 0.00330444 0.00649148
             -0.00043816 0.000156041 0.000675725 0.00564792 0.999865 -0.0124214 -3.62904e-05 6.33305e-05
             0.0005787 0.00592196 0.003212 0.00650612 -3.36629e-05 6.55276e-05 0.948138 -0.218035
1.319e+08    0.986819 -0.0786547 0.0180781 0.0597892 -0.00040306 0.000188351 0.000499206 0.00595843
             0.0175862 0.0596484 0.975347 -0.0955175 0.000671177 0.00570832 0.00323036 0.0065518
             -0.000368681 0.000228998 0.00067839 0.00569661 0.999886 -0.0125897 -3.46115e-05 6.35567e-05
             0.000511118 0.00593386 0.0033359 0.00655196 -3.26647e-05 6.40977e-05 0.948395 -0.220495
1.3335e+08   0.98645 -0.0799939 0.017479 0.060156 -0.000421437 0.000192769 0.00062044 0.00605237
             0.0177754 0.0603992 0.975897 -0.0962521 0.000698316 0.00577685 0.00342996 0.00663021
             -0.000454516 0.000165062 0.000701768 0.00576691 0.999865 -0.012761 -3.76895e-05 6.48228e-05
             0.000605902 0.00606361 0.00334091 0.00659764 -3.49873e-05 6.27385e-05 0.946006 -0.222821
1.348e+08    0.986255 -0.0802837 0.018803 0.0610071 -0.000434091 0.000206777 0.000539961 0.00606856
             0.0183281 0.0608005 0.974364 -0.097453 0.000725884 0.00582673 0.00337602 0.00660683
             -0.000386176 0.000239116 0.000706289 0.00581385 0.999826 -0.0128943 -3.59036e-05 6.65653e-05
             0.000539732 0.00607498 0.00346501 0.00665018 -3.85327e-05 6.45011e-05 0.946154 -0.224461
1.3625e+08   0.985892 -0.0816251 0.0182524 0.0612369 -0.00043578 0.000219041 0.00062801 0.00622057
             0.0185192 0.061548 0.974864 -0.098038 0.00073652 0.00586927 0.00353267 0.00675622
             -0.00047103 0.000174316 0.000728164 0.00588536 0.999814 -0.0129958 -3.86024e-05 6.63844e-05
             0.000634157 0.00620579 0.00347192 0.00668643 -3.96682e-05 6.85764e-05 0.944079 -0.227512
1.377e+08    0.98568 -0.0819067 0.0195321 0.0622117 -0.000435045 0.000220521 0.000597553 0.00619227
             0.0190833 0.061943 0.973373 -0.0993708 0.000734211 0.00592459 0.00354281 0.00667595
             -0.000404156 0.000249482 0.000734807 0.00593076 0.999841 -0.0131106 -3.76288e-05 6.94213e-05
             0.000569452 0.0062166 0.00359513 0.00674541 -3.77851e-05 7.13369e-05 0.943669 -0.228534
1.3915e+08   0.985323 -0.0832499 0.0190476 0.0623121 -0.000443423 0.000215569 0.000625269 0.00637184
             0.0192761 0.0626869 0.973804 -0.0998137 0.00073876 0.00599674 0.00362291 0.00685706
             -0.000487859 0.000184201 0.000754893 0.00600315 0.999872 -0.0132669 -3.91687e-05 6.83229e-05
             0.000663453 0.00634846 0.00360487 0.00677247 -3.59346e-05 7.08368e-05 0.942274 -0.231979
1.406e+08    0.985095 -0.0835236 0.0202656 0.0634016 -0.000461482 0.000216557 0.00066154 0.00633618
             0.0198515 0.0630758 0.972375 -0.101269 0.000761722 0.00606917 0.00371721 0.00676714
             -0.000422086 0.000260227 0.000763795 0.00604739 0.999867 -0.0134426 -3.95536e-05 7.19447e-05
             0.000600268 0.00635878 0.00372609 0.00683765 -3.71105e-05 6.90884e-05 0.94106 -0.232808
1.4205e+08   0.984745 -0.0848681 0.0198638 0.0633825 -0.00047783 0.000228912 0.000624647 0.00650287
             0.020046 0.0638159 0.972719 -0.10158 0.000792215 0.00612459 0.00371634 0.0069289
             -0.000504859 0.000194154 0.000782058 0.00612033 0.999828 -0.0135916 -3.96086e-05 7.07409e-05
             0.000693921 0.00649166 0.00373977 0.00685589 -4.06293e-05 6.96739e-05 0.940447 -0.236165
1.435e+08    0.984499 -0.0851339 0.0210043 0.0645755 -0.000483028 0.00024395 0.000719653 0.0064997
             0.0206328 0.0641985 0.971368 -0.103147 0.000809912 0.00616664 0.00388364 0.00687933
             -0.000440464 0.000271178 0.000793273 0.00616358 0.999802 -0.0137005 -4.14372e-05 7.40598e-05
             0.000632277 0.00650138 0.00385797 0.00692669 -4.28835e-05 7.33198e-05 0.938474 -0.237289
1.4495e+08   0.984157 -0.0864795 0.0207 0.0644488 -0.00048166 0.000249681 0.000638049 0.00661825
             0.0208288 0.0649344 0.971609 -0.103338 0.000810691 0.00621547 0.00382775 0.0069779
             -0.00052225 0.000204536 0.000809445 0.00623685 0.999818 -0.0138055 -4.01881e-05 7.36257e-05
             0.000725416 0.00663527 0.00387641 0.00693666 -4.18639e-05 7.69699e-05 0.93845 -0.240111
1.464e+08    0.983894 -0.0867378 0.0217488 0.0657322 -0.000486448 0.000245776 0.000762116 0.0066753
             0.0214264 0.0653109 0.970352 -0.105003 0.000811347 0.00628239 0.00402989 0.00700268
             -0.000459076 0.000282597 0.00082312 0.00627959 0.999853 -0.0139468 -4.30003e-05 7.58217e-05
             0.000665349 0.00664461 0.00399063 0.00701255 -3.95859e-05 7.76418e-05 0.936038 -0.2419
1.4785e+08   0.983559 -0.0880841 0.021555 0.0655121 -0.000502697 0.000243792 0.000672348 0.00672859
             0.0216241 0.0660428 0.970475 -0.105089 0.000828786 0.00635652 0.0039653 0.00701766
             -0.000539763 0.000215221 0.000837257 0.00635281 0.999863 -0.0141205 -4.11668e-05 7.67398e-05
             0.000758169 0.00677945 0.00401475 0.00701492 -3.95573e-05 7.59946e-05 0.93619 -0.243934
1.493e+08    0.983279 -0.0883352 0.0225 0.0668708 -0.000521732 0.000253269 0.000785301 0.00685104
             0.0222329 0.0664131 0.969326 -0.106835 0.000859607 0.00641787 0.00415175 0.00712209
             -0.000478081 0.000294208 0.000853403 0.00639532 0.999832 -0.014283 -4.41687e-05 7.74781e-05
             0.00069968 0.00678827 0.00412413 0.00709509 -4.2567e-05 7.55339e-05 0.933812 -0.246503
1.5075e+08   0.982951 -0.0896821 0.0224276 0.0665727 -0.000531217 0.000269715 0.000726974 0.00684626
             0.0224318 0.0671404 0.96932 -0.106833 0.000883778 0.00646195 0.00412777 0.0070637
             -0.000557722 0.000226489 0.000865506 0.00646817 0.999796 -0.0144043 -4.26436e-05 7.98871e-05
             0.000792118 0.00692405 0.00415462 0.00709063 -4.56449e-05 7.83539e-05 0.933658 -0.247783
1.522e+08    0.982654 -0.0899261 0.023259 0.0679903 -0.000530757 0.00027992 0.000793214 0.00701499
             0.0230516 0.0675049 0.968289 -0.108644 0.000889692 0.00650571 0.0042546 0.00722271
             -0.000497098 0.000306443 0.000884131 0.00651073 0.999797 -0.0145052 -4.49179e-05 7.93772e-05
             0.000735228 0.00693235 0.00425843 0.00717426 -4.57388e-05 8.24833e-05 0.931764 -0.250949
1.5365e+08   0.982334 -0.0912729 0.0233164 0.0676313 -0.000532364 0.000278578 0.00079437 0.00698096
             0.0232519 0.0682275 0.968145 -0.108571 0.000888546 0.00656609 0.00430522 0.00712783
             -0.000575591 0.000237969 0.000894137 0.00658286 0.99983 -0.0146314 -4.44504e-05 8.28238e-05
             0.000827196 0.00706904 0.00429588 0.00716384 -4.35029e-05 8.43972e-05 0.930932 -0.251781
1.551e+08    0.98202 -0.0915103 0.0240268 0.0690902 -0.000545561 0.000274638 0.000796187 0.00715982
             0.0238825 0.0685861 0.967241 -0.110427 0.000900091 0.00663944 0.00435151 0.0072958
             -0.000516368 0.000318723 0.000915202 0.00662591 0.999852 -0.014797 -4.53916e-05 8.17034e-05
             0.000771881 0.00707698 0.00439354 0.00725004 -4.23924e-05 8.3319e-05 0.929781 -0.25514
1.5655e+08   0.981706 -0.092857 0.0242201 0.0686881 -0.000565835 0.000280481 0.000862905 0.00713624
             0.024084 0.0693039 0.96695 -0.110302 0.000928768 0.0067061 0.00448289 0.00721406
             -0.000593916 0.000249702 0.000923289 0.00669692 0.999834 -0.0149686 -4.63643e-05 8.53846e-05
             0.000863555 0.00721461 0.00443843 0.00723456 -4.44972e-05 8.21142e-05 0.928147 -0.255987
1.58e+08     0.981375 -0.0930877 0.0248045 0.0701698 -0.000579787 0.000296712 0.000806871 0.0072857
             0.0247253 0.0696565 0.966179 -0.112185 0.000957942 0.00675427 0.00445813 0.00734206
             -0.00053605 0.000331514 0.00094659 0.00674074 0.999795 -0.0151048 -4.58459e-05 8.45204e-05
             0.000809876 0.00722201 0.00452941 0.00732236 -4.79672e-05 8.38536e-05 0.927715 -0.25906
1.5945e+08   0.98107 -0.0944339 0.0251371 0.0697433 -0.000581801 0.000310981 0.000920987 0.00730835
             0.024928 0.0703694 0.965739 -0.112028 0.000970356 0.00679504 0.00464642 0.00731723
             -0.000612332 0.000261977 0.000952937 0.00681038 0.99978 -0.0152081 -4.81239e-05 8.75459e-05
             0.000901128 0.00736057 0.00458212 0.00730285 -4.92451e-05 8.79761e-05 0.925444 -0.26037
1.609e+08    0.980722 -0.0946583 0.0255933 0.071229 -0.000581212 0.000313494 0.000835277 0.00740013
             0.0255801 0.0707163 0.965103 -0.113917 0.000969825 0.00684841 0.00458656 0.00737123
             -0.000555834 0.000344535 0.000978316 0.00685517 0.999805 -0.0153213 -4.65645e-05 8.77315e-05
             0.000849129 0.00736752 0.00466611 0.0073912 -4.75176e-05 9.10081e-05 0.925438 -0.262784
1.6235e+08   0.980424 -0.0960036 0.026066 0.0707968 -0.000590568 0.000309055 0.000961282 0.00748747
             0.0257838 0.0714239 0.964512 -0.113747 0.000976017 0.00691852 0.00478699 0.00742482
             -0.000631058 0.000274533 0.00098301 0.0069232 0.999836 -0.0154745 -4.95167e-05 8.94743e-05
             0.00093997 0.00750695 0.00472681 0.00736866 -4.56279e-05 9.08791e-05 0.922926 -0.264824
1.638e+08    0.980059 -0.096222 0.0263944 0.0722676 -0.000610398 0.000311131 0.000885126 0.00751489
             0.0264466 0.0717651 0.964011 -0.115623 0.00100046 0.00698897 0.00474074 0.00739813
             -0.000575945 0.000357927 0.00101036 0.00696926 0.999832 -0.0156492 -4.77071e-05 9.111e-05
             0.000889687 0.00751347 0.00480358 0.00745654 -4.65943e-05 8.93688e-05 0.922891 -0.266447
1.6525e+08   0.979769 -0.0975661 0.0270053 0.0718484 -0.000628311 0.000325534 0.000983474 0.00766125
             0.0266511 0.0724672 0.963271 -0.115461 0.00103243 0.00704257 0.0049047 0.00752155
             -0.000650099 0.000287618 0.00101359 0.00703533 0.999796 -0.0158005 -5.04769e-05 9.14373e-05
             0.00098011 0.0076537 0.00487234 0.00743204 -4.99592e-05 8.99808e-05 0.920612 -0.269205
1.667e+08    0.979387 -0.0977787 0.027209 0.0732857 -0.000634112 0.000342837 0.000952638 0.00764161
             0.0273243 0.0728028 0.962903 -0.117302 0.00105177 0.00708285 0.00491538 0.00743692
             -0.000596081 0.000371902 0.0010426 0.00708298 0.999768 -0.015912 -4.92572e-05 9.44314e-05
             0.000931486 0.00765984 0.00494187 0.0075184 -5.2281e-05 9.36302e-05 0.920103 -0.270189
1.6815e+08   0.979105 -0.0991213 0.0279535 0.0728976 -0.000632764 0.000350042 0.000994631 0.00781943
             0.0275298 0.0734995 0.962018 -0.117168 0.00105427 0.00712972 0.00500864 0.00759507
             -0.000669052 0.000300904 0.00104467 0.00714686 0.99978 -0.0160166 -5.10247e-05 9.36611e-05
             0.00102154 0.00780094 0.00501862 0.00749297 -5.14284e-05 9.74847e-05 0.918434 -0.273381
1.696e+08    0.978706 -0.0993284 0.028038 0.0742838 -0.000638082 0.000346784 0.00102816 0.00778747
             0.0282136 0.0738293 0.961778 -0.118956 0.00105654 0.00719456 0.00509811 0.00749607
             -0.00061654 0.000385966 0.00107505 0.00719627 0.999814 -0.016155 -5.11448e-05 9.7417e-05
             0.000974672 0.00780668 0.00508096 0.00757672 -4.91727e-05 9.85296e-05 0.91718 -0.274108
1.7105e+08   0.978432 -0.100669 0.0289093 0.073944 -0.000655808 0.000345611 0.00100649 0.00795781
             0.0284196 0.0745203 0.960754 -0.118867 0.00107542 0.00726662 0.00511336 0.00764088
