# Hz S RI R 50
1e+08        0.990803 -0.0663952 0.0106448 0.0505482 -0.000123684 0.000100484 0.000348873 0.00445305
             0.0103778 0.0512464 0.98693 -0.0792741 0.000236473 0.00417853 0.00187599 0.00549584
             -0.000120671 0.000100578 0.000229411 0.00415625 0.99987 -0.00949961 -7.88083e-06 3.95571e-05
             0.000344908 0.00439133 0.00182536 0.00546734 -9.28737e-06 3.69434e-05 0.968695 -0.17316
1.0145e+08   0.991438 -0.0653369 0.0105187 0.052478 -0.000123514 0.000102453 0.000397015 0.00451874
             0.0107653 0.051837 0.986729 -0.0809509 0.00023642 0.00421624 0.00177819 0.00561546
             -0.000125705 9.94135e-05 0.000226719 0.00424281 0.999878 -0.00957336 -6.58205e-06 3.94933e-05
             0.000398969 0.0045761 0.00183354 0.00565869 -8.45353e-06 4.32849e-05 0.969161 -0.176156
1.029e+08    0.990246 -0.0681997 0.0114355 0.0520304 -0.000128568 0.000101362 0.000370614 0.00457735
             0.0109767 0.0526492 0.986114 -0.0815039 0.00022423 0.00428908 0.00198365 0.00567084
             -0.000127547 0.0001049 0.000245266 0.00427709 0.999933 -0.00974216 -8.37286e-06 4.04719e-05
             0.00036221 0.00452711 0.00194384 0.00561024 -3.72528e-06 4.09635e-05 0.966929 -0.178273
1.0435e+08   0.990991 -0.0671989 0.0109511 0.053755 -0.000134683 0.000106354 0.000414537 0.00466282
             0.0113674 0.0532285 0.986076 -0.0830941 0.000249438 0.00436055 0.00188136 0.00570811
             -0.000132897 0.000103918 0.000234853 0.00435949 0.999881 -0.0099197 -6.92539e-06 4.12463e-05
             0.000423404 0.00470922 0.00191629 0.00578064 -8.51826e-06 3.81314e-05 0.967504 -0.180529
1.058e+08    0.989678 -0.0699953 0.0122054 0.0535611 -0.000134747 0.000110029 0.000398285 0.00470393
             0.0115917 0.0540451 0.985295 -0.0837508 0.000259446 0.00439774 0.0020719 0.00584261
             -0.000134655 0.000109407 0.000260921 0.00439885 0.999861 -0.00999564 -8.66333e-06 4.13923e-05
             0.000380516 0.00466355 0.0020609 0.00575668 -1.02277e-05 4.43658e-05 0.965316 -0.183374
1.0725e+08   0.990527 -0.069059 0.0114465 0.0549756 -0.000138387 0.000108558 0.000428628 0.00480404
             0.0119851 0.0546129 0.985385 -0.0852044 0.000243639 0.00446153 0.00200683 0.00580604
             -0.000140238 0.000108638 0.000244191 0.00447469 0.999923 -0.0101377 -7.47319e-06 4.29731e-05
             0.000448612 0.00484244 0.00200591 0.00589556 -4.722e-06 4.44486e-05 0.965617 -0.184925
1.087e+08    0.989098 -0.0717821 0.0129385 0.0551258 -0.000145662 0.000112357 0.000430215 0.00483518
             0.0122227 0.0554333 0.984479 -0.0860085 0.00026207 0.0045398 0.00214425 0.00600022
             -0.000141896 0.000114089 0.00027566 0.00452138 0.999894 -0.0103325 -8.75543e-06 4.23861e-05
             0.000399653 0.00480052 0.00217485 0.00590521 -7.54463e-06 4.00225e-05 0.963835 -0.188363
1.1015e+08   0.990049 -0.0709167 0.0120176 0.0561575 -0.00014666 0.000117601 0.000441566 0.0049407
             0.0126177 0.0559899 0.984648 -0.0872893 0.000281362 0.0045807 0.00214805 0.00591817
             -0.000147653 0.000113515 0.000255034 0.00458898 0.99985 -0.0104225 -8.24363e-06 4.45693e-05
             0.000474485 0.00497596 0.00210369 0.00600523 -1.14756e-05 4.50585e-05 0.963549 -0.189431
1.116e+08    0.988509 -0.0735603 0.0136243 0.0567057 -0.000148761 0.000116454 0.000463712 0.00497228
             0.0128695 0.0568142 0.983672 -0.0882685 0.000266067 0.00463468 0.0022094 0.00613608
             -0.000149263 0.000118812 0.000289222 0.00464437 0.999908 -0.0105371 -8.71506e-06 4.36338e-05
             0.000419807 0.00493819 0.00228464 0.00605384 -6.27928e-06 4.76164e-05 0.962417 -0.193162
1.1305e+08   0.989554 -0.072772 0.0126705 0.0573214 -0.000156555 0.000118688 0.000456167 0.0050725
             0.0132657 0.0573596 0.983863 -0.0893579 0.000275524 0.00471606 0.00229495 0.00604893
             -0.000155308 0.000118528 0.000267658 0.00470299 0.999906 -0.0107378 -9.05459e-06 4.59472e-05
             0.0005012 0.0051097 0.0022101 0.00611165 -6.66798e-06 4.25865e-05 0.961386 -0.194095
1.145e+08    0.987908 -0.0753296 0.0142585 0.0582792 -0.000159093 0.000125047 0.000495875 0.00511478
             0.013532 0.0581871 0.982878 -0.0905212 0.00030158 0.00476413 0.00227862 0.00624821
             -0.00015673 0.000123763 0.000301754 0.00476728 0.999846 -0.0108511 -8.69708e-06 4.51064e-05
             0.000440966 0.00507637 0.00238973 0.00620052 -1.21007e-05 4.55883e-05 0.960963 -0.197741
1.1595e+08   0.989044 -0.0746243 0.0134046 0.0584886 -0.000159857 0.000124942 0.000475022 0.00520056
             0.0139288 0.0587217 0.98303 -0.0914197 0.000290822 0.00480932 0.0024366 0.0061973
             -0.000162978 0.000123563 0.000282079 0.00481697 0.999888 -0.0109426 -9.83756e-06 4.71492e-05
             0.00052864 0.0052437 0.00232512 0.00621701 -8.24573e-06 5.02607e-05 0.959226 -0.198921
1.174e+08    0.987297 -0.0770904 0.0148441 0.0598248 -0.000167414 0.000125555 0.000524469 0.00526079
             0.0142101 0.0595519 0.982094 -0.0927566 0.000290821 0.0048896 0.00236253 0.00634083
             -0.000164476 0.000128671 0.000313211 0.00488954 0.999913 -0.0111369 -8.76912e-06 4.68144e-05
             0.00046322 0.00521516 0.00249045 0.00634301 -6.19944e-06 4.574e-05 0.959373 -0.202127
1.1885e+08   0.988518 -0.0764735 0.0142123 0.0596789 -0.000171849 0.000132344 0.000499805 0.00532716
             0.0146066 0.0600762 0.982151 -0.0934837 0.000319832 0.00494694 0.00256402 0.00635693
             -0.000170968 0.000128803 0.000298047 0.00493129 0.999848 -0.011278 -1.04487e-05 4.81793e-05
             0.000556862 0.00537788 0.00244795 0.00632318 -1.21029e-05 4.6287e-05 0.957156 -0.203861
1.203e+08    0.986676 -0.0788424 0.0153906 0.0613227 -0.000171772 0.000133875 0.000548601 0.00540757
             0.0149038 0.0609087 0.981318 -0.0949653 0.000316859 0.00498602 0.00246794 0.00642284
             -0.00017238 0.000133812 0.000323632 0.00501078 0.999867 -0.0113553 -9.06813e-06 4.8625e-05
             0.000486454 0.00535452 0.00258765 0.00647931 -1.03459e-05 5.23129e-05 0.957578 -0.20639
1.2175e+08   0.987977 -0.0783193 0.0150805 0.0609086 -0.000178355 0.000133143 0.000530823 0.00545513
             0.0152994 0.0614228 0.981232 -0.0955574 0.000308824 0.00506127 0.00267252 0.00651778
             -0.000179094 0.000134211 0.000315249 0.00504652 0.999914 -0.0115324 -1.08857e-05 4.91923e-05
             0.000585891 0.0055124 0.00257721 0.00643186 -6.31209e-06 4.92877e-05 0.955229 -0.208831
1.232e+08    0.986046 -0.0805859 0.0159137 0.0627576 -0.000184703 0.000139556 0.000568905 0.00555229
             0.015613 0.0622571 0.980543 -0.0971401 0.00033656 0.00512807 0.00259614 0.00650522
             -0.000180412 0.000139118 0.000333507 0.00513072 0.999857 -0.0117002 -9.57678e-06 5.05004e-05
             0.000510862 0.0054944 0.0026829 0.00660789 -1.15702e-05 4.74307e-05 0.955553 -0.210627
1.2465e+08   0.987419 -0.0801612 0.0159917 0.0621891 -0.000184513 0.000143049 0.000566842 0.00558708
             0.0160069 0.0627613 0.98028 -0.0976463 0.000343183 0.0051648 0.0027631 0.00666871
             -0.000187357 0.000139712 0.000333387 0.0051628 0.999847 -0.011775 -1.10582e-05 5.0289e-05
             0.000615691 0.00564714 0.00271111 0.0065441 -1.22721e-05 5.37817e-05 0.953449 -0.213731
1.261e+08    0.985406 -0.0823208 0.016433 0.0641198 -0.000189559 0.000141544 0.000587337 0.00569294
             0.0163372 0.0635967 0.979761 -0.0992756 0.000329974 0.00523201 0.0027427 0.00659803
             -0.000188675 0.000144577 0.000343166 0.00524915 0.999906 -0.0119274 -1.02402e-05 5.22455e-05
             0.000536395 0.0056348 0.00277804 0.00672777 -7.07059e-06 5.2938e-05 0.953325 -0.214933
1.2755e+08   0.986846 -0.081999 0.0169256 0.0635258 -0.000197483 0.000146822 0.000605507 0.00572462
             0.0167289 0.0640917 0.979305 -0.0997533 0.000352497 0.00530665 0.00284244 0.00680071
             -0.000195756 0.000145411 0.000352093 0.00528029 0.999868 -0.0121156 -1.10942e-05 5.15255e-05
             0.000646208 0.0057821 0.00284757 0.00666049 -1.07125e-05 4.91912e-05 0.951768 -0.218471
1.29e+08     0.984756 -0.0840475 0.0169699 0.0654068 -0.000198019 0.000152262 0.00060662 0.00582866
             0.0170767 0.0649277 0.978962 -0.10137 0.000368743 0.00534522 0.00289896 0.00670757
             -0.000197123 0.000150196 0.000353049 0.00536586 0.999833 -0.0122 -1.10172e-05 5.38349e-05
             0.000563008 0.00577583 0.00287523 0.00683878 -1.37715e-05 5.47709e-05 0.950964 -0.219374
1.3045e+08   0.986256 -0.0838324 0.0178616 0.0649175 -0.000201257 0.000150772 0.000643863 0.00586783
             0.0174655 0.0654139 0.978316 -0.101878 0.000354187 0.00540289 0.00292077 0.00690944
             -0.00020426 0.000151374 0.00037076 0.00539912 0.999892 -0.012325 -1.10528e-05 5.29649e-05
             0.000677606 0.00591741 0.00298459 0.00678086 -8.45021e-06 5.63807e-05 0.950099 -0.223001
1.319e+08    0.984098 -0.0857656 0.0175456 0.0666233 -0.000210108 0.000154378 0.000629476 0.00596015
             0.017831 0.0662497 0.978136 -0.103425 0.000368644 0.00548227 0.00305426 0.00683518
             -0.000205564 0.000155914 0.000363823 0.0054811 0.99988 -0.0125236 -1.1844e-05 5.52013e-05
             0.000590803 0.00591735 0.00297653 0.00694123 -9.84797e-06 5.16344e-05 0.948564 -0.223976
1.3335e+08   0.98565 -0.085661 0.0187801 0.0663567 -0.00021213 0.000161387 0.000679408 0.00601528
             0.0182165 0.0667276 0.977323 -0.104019 0.000392715 0.00552652 0.00300911 0.00699649
             -0.000212938 0.000157328 0.000389088 0.0055189 0.999825 -0.0126277 -1.1099e-05 5.47018e-05
             0.000709813 0.00605305 0.00312011 0.00690446 -1.47025e-05 5.55228e-05 0.948342 -0.22732
1.348e+08    0.98343 -0.0874757 0.0181782 0.0677803 -0.000213629 0.000160766 0.000657932 0.00608937
             0.0186001 0.0675625 0.977276 -0.105444 0.000380906 0.00557497 0.00319868 0.00697662
             -0.000214291 0.000161782 0.000375689 0.005595 0.999873 -0.012728 -1.24671e-05 5.64465e-05
             0.00061987 0.00605941 0.00308371 0.00703627 -1.03066e-05 5.94101e-05 0.946218 -0.228712
1.3625e+08   0.985029 -0.0874845 0.0196648 0.0678301 -0.000222551 0.000162469 0.000710764 0.00616443
             0.0189818 0.0680329 0.976332 -0.106168 0.000386134 0.00565516 0.00311586 0.00706878
             -0.000221777 0.000163543 0.000406635 0.00563948 0.999888 -0.0129249 -1.12139e-05 5.6484e-05
             0.000742878 0.00618895 0.00325249 0.00702992 -9.25536e-06 5.47305e-05 0.946413 -0.231479
1.377e+08    0.982754 -0.0891775 0.0188811 0.068894 -0.000226602 0.000170332 0.000692771 0.00621902
             0.0193838 0.0688661 0.976374 -0.107435 0.000414896 0.00570774 0.00332552 0.0071234
             -0.000223059 0.000167815 0.000388985 0.005708 0.999824 -0.013055 -1.3026e-05 5.74865e-05
             0.000650169 0.00620195 0.00319801 0.00712551 -1.49878e-05 5.63326e-05 0.943995 -0.233515
1.3915e+08   0.984391 -0.0893023 0.0205046 0.0693201 -0.000226821 0.00017134 0.000738075 0.00631243
             0.0197614 0.0693297 0.97535 -0.10832 0.000409485 0.00574884 0.00324468 0.00713673
             -0.00023075 0.000169756 0.000423276 0.00576054 0.999852 -0.0131377 -1.16376e-05 5.84195e-05
             0.000776797 0.00632509 0.0033806 0.00715549 -1.23831e-05 6.18853e-05 0.944265 -0.235566
1.406e+08    0.98207 -0.0908714 0.0196618 0.0699841 -0.000234936 0.000171311 0.00073326 0.00635184
             0.0201823 0.0701601 0.975428 -0.109405 0.000406023 0.00582568 0.00343356 0.00726479
             -0.000232193 0.000173954 0.000403993 0.00582041 0.99989 -0.0133216 -1.33346e-05 5.85935e-05
             0.000681616 0.00634498 0.00332013 0.00721085 -9.14731e-06 5.83048e-05 0.941922 -0.238291
1.4205e+08   0.983738 -0.0911146 0.0212941 0.0708063 -0.000241194 0.000179136 0.000762884 0.00645687
             0.020555 0.0706174 0.974379 -0.110464 0.000435353 0.00588761 0.00339357 0.00721078
             -0.000240009 0.000176347 0.000438837 0.00588153 0.99983 -0.0134789 -1.22612e-05 6.03099e-05
             0.000811598 0.00646167 0.00350384 0.00727918 -1.46755e-05 5.74698e-05 0.941903 -0.239676
1.435e+08    0.981377 -0.0925575 0.020521 0.0710712 -0.000240883 0.000182277 0.000777323 0.0064898
             0.0209949 0.0714444 0.974435 -0.111364 0.000438742 0.00592468 0.00352711 0.00739077
             -0.000241352 0.000180481 0.000420673 0.00593262 0.999831 -0.0135547 -1.34605e-05 5.98368e-05
             0.000714431 0.00648843 0.00345012 0.00729435 -1.43955e-05 6.37511e-05 0.939975 -0.242944
1.4495e+08   0.983068 -0.0929207 0.0220348 0.0722677 -0.000247453 0.00018105 0.000787708 0.00659653
             0.0213625 0.0718963 0.973421 -0.112592 0.000428814 0.00599476 0.0035556 0.00729889
             -0.000249182 0.000183156 0.000453249 0.00600201 0.999885 -0.0137167 -1.30293e-05 6.20883e-05
             0.000847222 0.00659855 0.00362233 0.00739883 -9.67011e-06 6.20841e-05 0.939377 -0.24389
1.464e+08    0.980676 -0.0942358 0.0214527 0.0721752 -0.000255694 0.000187936 0.00082216 0.00663354
             0.0218218 0.0727191 0.973399 -0.113321 0.000454632 0.00606523 0.00361494 0.00749497
             -0.000250399 0.000187069 0.000438881 0.00604513 0.999839 -0.013897 -1.3449e-05 6.1289e-05
             0.00074856 0.0066324 0.00358726 0.00737796 -1.39729e-05 5.91654e-05 0.938082 -0.247406
1.4785e+08   0.982383 -0.0947202 0.022735 0.0736848 -0.000255772 0.000193362 0.000815381 0.00673159
             0.0221842 0.073166 0.972471 -0.114694 0.000467613 0.0061023 0.00372077 0.00740455
             -0.000258402 0.00018973 0.000466643 0.0061216 0.999814 -0.0139776 -1.38584e-05 6.36654e-05
             0.000883815 0.0067357 0.00373686 0.00751261 -1.60824e-05 6.51242e-05 0.936772 -0.248252
1.493e+08    0.979966 -0.0959065 0.0224453 0.0733125 -0.00026033 0.000191756 0.000865074 0.00678208
             0.0226626 0.0739836 0.972324 -0.115283 0.000454649 0.00616349 0.00370784 0.00757658
             -0.000259999 0.000193537 0.000458406 0.00615841 0.999873 -0.0141133 -1.34317e-05 6.30128e-05
             0.000783938 0.00677673 0.0037304 0.0074633 -1.08032e-05 6.58073e-05 0.936151 -0.251653
1.5075e+08   0.981682 -0.0965129 0.0234085 0.0750419 -0.000269935 0.000196959 0.000848197 0.00686361
             0.0230195 0.0744267 0.971525 -0.116763 0.000473665 0.00624005 0.00387882 0.00752588
             -0.000268162 0.000196763 0.000479446 0.00623994 0.99985 -0.0143078 -1.45678e-05 6.50452e-05
             0.000921263 0.00687329 0.0038487 0.00761898 -1.31038e-05 6.15286e-05 0.934181 -0.25276
1.522e+08    0.979249 -0.0975697 0.0234824 0.0744953 -0.000271325 0.000204387 0.000904232 0.00693319
             0.0235173 0.075238 0.971217 -0.117255 0.000495256 0.00628108 0.00381545 0.00764036
             -0.000269616 0.00020057 0.000478938 0.00627259 0.999802 -0.0144042 -1.35188e-05 6.4872e-05
             0.000820767 0.0069215 0.00387798 0.00755163 -1.72261e-05 6.61605e-05 0.934087 -0.255714
1.5365e+08   0.980965 -0.0982984 0.0240737 0.0763287 -0.000273799 0.000203357 0.000887382 0.00699511
             0.0238685 0.075678 0.970575 -0.118793 0.000483242 0.00633289 0.00402173 0.00765605
             -0.000277778 0.00020394 0.000491966 0.00635677 0.999855 -0.0145141 -1.51781e-05 6.62729e-05
             0.000959645 0.00701113 0.00395974 0.00771682 -1.24478e-05 6.91893e-05 0.931686 -0.257364
1.551e+08    0.978524 -0.0992255 0.0245449 0.0757302 -0.000283878 0.000206468 0.000939259 0.00708405
             0.0243857 0.076482 0.970087 -0.119243 0.000493546 0.00641194 0.00394342 0.00769524
             -0.000279396 0.00020763 0.000500056 0.00638786 0.999858 -0.0147116 -1.38152e-05 6.68905e-05
             0.000858882 0.00706668 0.00402794 0.00764351 -1.23765e-05 6.45429e-05 0.931827 -0.259659
1.5655e+08   0.980233 -0.100076 0.0247508 0.0775414 -0.000287308 0.000215229 0.000932682 0.0071289
             0.0247309 0.0769199 0.969612 -0.120782 0.000521169 0.00646009 0.00414592 0.00778516
             -0.000287628 0.000211351 0.000504564 0.00647195 0.999798 -0.0148316 -1.55505e-05 6.7486e-05
             0.000998974 0.00714937 0.00407192 0.00780581 -1.77413e-05 6.71198e-05 0.929333 -0.261982
1.58e+08     0.977791 -0.100874 0.0256124 0.0770172 -0.000288046 0.000215694 0.000971267 0.00723204
             0.0252676 0.0777157 0.968941 -0.121245 0.000513915 0.0065037 0.00409209 0.0077517
             -0.000289254 0.000214998 0.000521307 0.00650436 0.999833 -0.0149211 -1.42972e-05 6.8902e-05
             0.000898385 0.00721224 0.00417828 0.00773885 -1.44128e-05 7.20525e-05 0.929352 -0.263582
1.5945e+08   0.979486 -0.101846 0.0254605 0.078683 -0.000297601 0.000216719 0.00098245 0.00726727
             0.0256069 0.0781521 0.968627 -0.12273 0.000515277 0.00658121 0.00425336 0.00790286
             -0.00029748 0.000218935 0.000517859 0.00658553 0.999862 -0.01511 -1.57223e-05 6.8743e-05
             0.00103928 0.00728797 0.00418707 0.00788629 -1.20592e-05 6.80925e-05 0.927121 -0.266519
1.609e+08    0.97705 -0.102516 0.0266659 0.0783502 -0.000303451 0.000225869 0.00100254 0.00737549
             0.0261629 0.0789388 0.967791 -0.123261 0.000545246 0.00663822 0.00425652 0.00781885
             -0.000299181 0.000222527 0.000542203 0.00662182 0.9998 -0.0152567 -1.49957e-05 7.08216e-05
             0.000939278 0.00735815 0.00432709 0.00783722 -1.7652e-05 6.83053e-05 0.926692 -0.267569
1.6235e+08   0.978723 -0.103608 0.0262207 0.079763 -0.000303183 0.00022853 0.00103405 0.0074113
             0.0264962 0.0793745 0.967612 -0.124641 0.000545701 0.00667634 0.00435102 0.00800129
             -0.000307325 0.000226607 0.000532122 0.00669776 0.999811 -0.0153351 -1.57426e-05 7.02185e-05
             0.00108054 0.00742699 0.00430712 0.00795915 -1.64228e-05 7.43431e-05 0.925 -0.270892
1.638e+08    0.976302 -0.10415 0.0276888 0.0797173 -0.000311301 0.000227914 0.00103585 0.00751412
             0.0270711 0.0801512 0.966642 -0.125285 0.000539618 0.00674859 0.004428 0.00790209
             -0.000309294 0.000230004 0.000562413 0.00674008 0.999859 -0.0155056 -1.57423e-05 7.25748e-05
             0.000981662 0.00750447 0.00447272 0.00793728 -1.22951e-05 7.19611e-05 0.923916 -0.271684
1.6525e+08   0.977945 -0.105362 0.0270455 0.0807961 -0.000319499 0.000236428 0.00108468 0.00756055
             0.0273988 0.0805873 0.96656 -0.126521 0.000567861 0.00681444 0.0044489 0.00807724
             -0.000317526 0.000234438 0.000547725 0.00680896 0.999807 -0.0156768 -1.57073e-05 7.18744e-05
             0.00112292 0.00756633 0.00443323 0.00802587 -1.70758e-05 6.99456e-05 0.922886 -0.275057
1.667e+08    0.975546 -0.105778 0.0286692 0.0811023 -0.000319194 0.000241622 0.00107375 0.00764903
             0.0279924 0.0813527 0.965501 -0.12731 0.000577503 0.00685076 0.00459629 0.00800176
             -0.000319643 0.000237838 0.000581727 0.00685876 0.999792 -0.0157556 -1.65195e-05 7.41314e-05
             0.00102545 0.00765102 0.00461397 0.00803753 -1.82101e-05 7.60802e-05 0.921115 -0.275945
1.6815e+08   0.977152 -0.107106 0.0279434 0.0818007 -0.000325211 0.000240166 0.00113217 0.00771314
             0.0283144 0.0817899 0.965467 -0.128377 0.00056684 0.00691507 0.00455713 0.00813318
             -0.000327732 0.000242625 0.000564802 0.00691944 0.999848 -0.0159015 -1.57408e-05 7.37911e-05
             0.00116631 0.00770606 0.00456626 0.00808821 -1.31558e-05 7.58701e-05 0.920685 -0.27902
1.696e+08    0.974783 -0.107399 0.029601 0.0824858 -0.000335233 0.000247117 0.00111786 0.0077825
             0.0289265 0.0825435 0.964372 -0.129328 0.000589723 0.00698806 0.00475236 0.00811312
             -0.000329901 0.000245748 0.000599886 0.00697751 0.999816 -0.0160902 -1.71415e-05 7.55498e-05
             0.00107072 0.00779784 0.00475016 0.008136 -1.62538e-05 7.22071e-05 0.918376 -0.280324
1.7105e+08   0.976345 -0.108842 0.0289161 0.0827966 -0.000335945 0.000254716 0.00117562 0.00786638
             0.0292432 0.0829825 0.964332 -0.130218 0.000608375 0.00702659 0.00468309 0.00817636
