# Hz S RI R 50
1e+08        0.994087 -0.0653492 0.00943314 0.0373868 -0.000390891 0.000684952 -0.00597259 0.0140333
             0.0126922 0.0314076 0.986875 -0.067752 -0.0025576 0.00748123 0.00243038 0.00276468
             -0.000324024 0.000454973 0.000293017 0.00550738 1.00008 -0.0121565 0.000159375 -0.000141509
             0.00214281 0.00453914 0.000843266 0.00537979 -0.00069604 0.000477832 0.975404 -0.166233
1.0145e+08   0.993851 -0.0662486 0.00963525 0.0379052 -0.000385545 0.000692353 -0.00584746 0.0142007
             0.0127958 0.0318838 0.986614 -0.0687103 -0.00253024 0.00758298 0.00244642 0.00280324
             -0.000321271 0.000459299 0.000299594 0.00558674 1.00007 -0.0123322 0.000157014 -0.000142739
             0.00213839 0.00461752 0.000899993 0.00543877 -0.000691694 0.00048359 0.974583 -0.168491
1.029e+08    0.993612 -0.0671462 0.00984012 0.0384226 -0.000380167 0.000699655 -0.00572106 0.0143667
             0.0129015 0.0323606 0.986349 -0.0696674 -0.00250257 0.00768445 0.0024627 0.00284172
             -0.000318531 0.000463544 0.000306268 0.00566609 1.00007 -0.0125077 0.000154631 -0.000143937
             0.00213416 0.00469636 0.000957235 0.005497 -0.000687301 0.000489301 0.973751 -0.170743
1.0435e+08   0.993371 -0.0680419 0.0100477 0.0389391 -0.000374757 0.00070686 -0.00559342 0.0145312
             0.0130095 0.0328381 0.98608 -0.0706234 -0.0024746 0.00778565 0.00247923 0.00288013
             -0.000315804 0.000467707 0.000313039 0.0057454 1.00006 -0.0126833 0.000152228 -0.000145102
             0.00213015 0.00477568 0.00101498 0.00555449 -0.000682861 0.000494964 0.97291 -0.172989
1.058e+08    0.993128 -0.0689357 0.0102581 0.0394545 -0.000369319 0.000713966 -0.00546455 0.0146943
             0.0131196 0.0333162 0.985807 -0.0715782 -0.00244632 0.00788658 0.002496 0.00291846
             -0.000313092 0.000471789 0.000319907 0.0058247 1.00006 -0.0128589 0.000149803 -0.000146234
             0.00212634 0.00485546 0.00107322 0.00561122 -0.000678375 0.000500579 0.972059 -0.175228
1.0725e+08   0.992882 -0.0698277 0.0104712 0.0399688 -0.000363852 0.000720972 -0.00533447 0.0148559
             0.013232 0.033795 0.98553 -0.0725318 -0.00241776 0.00798723 0.00251301 0.00295671
             -0.000310399 0.000475789 0.000326873 0.00590397 1.00006 -0.0130344 0.000147359 -0.000147333
             0.00212276 0.00493571 0.00113194 0.0056672 -0.000673844 0.000506146 0.971198 -0.177461
1.087e+08    0.992633 -0.0707178 0.0106871 0.0404821 -0.00035836 0.000727878 -0.00520321 0.0150161
             0.0133467 0.0342744 0.98525 -0.0734843 -0.00238889 0.00808759 0.00253027 0.00299488
             -0.000307724 0.000479708 0.000333936 0.00598321 1.00005 -0.0132099 0.000144895 -0.000148398
             0.00211941 0.00501644 0.00119113 0.00572242 -0.000669268 0.000511664 0.970326 -0.179687
1.1015e+08   0.992382 -0.071606 0.0109057 0.0409943 -0.000352844 0.000734683 -0.00507079 0.0151748
             0.0134636 0.0347545 0.984965 -0.0744355 -0.00235974 0.00818767 0.00254777 0.00303296
             -0.000305071 0.000483545 0.000341096 0.00606242 1.00005 -0.0133853 0.000142412 -0.00014943
             0.0021163 0.00509764 0.00125077 0.00577688 -0.000664648 0.000517133 0.969445 -0.181907
1.116e+08    0.992129 -0.0724924 0.011127 0.0415055 -0.000347305 0.000741387 -0.00493722 0.015332
             0.0135829 0.0352352 0.984677 -0.0753855 -0.00233031 0.00828747 0.00256551 0.00307096
             -0.000302441 0.000487302 0.000348353 0.00614161 1.00004 -0.0135607 0.00013991 -0.000150428
             0.00211344 0.00517931 0.00131087 0.00583056 -0.000659985 0.000522552 0.968555 -0.18412
1.1305e+08   0.991873 -0.0733768 0.0113511 0.0420155 -0.000341745 0.00074799 -0.00480253 0.0154877
             0.0137045 0.0357165 0.984386 -0.0763342 -0.00230059 0.00838698 0.0025835 0.00310887
             -0.000299836 0.000490977 0.000355708 0.00622078 1.00004 -0.0137361 0.00013739 -0.000151392
             0.00211085 0.00526146 0.00137139 0.00588347 -0.000655279 0.000527921 0.967654 -0.186327
1.145e+08    0.991615 -0.0742594 0.0115779 0.0425245 -0.000336166 0.000754492 -0.00466673 0.0156419
             0.0138285 0.0361984 0.98409 -0.0772817 -0.00227059 0.0084862 0.00260172 0.0031467
             -0.000297257 0.000494571 0.00036316 0.00629991 1.00003 -0.0139115 0.000134852 -0.000152321
             0.00210852 0.00534408 0.00143235 0.00593561 -0.000650531 0.00053324 0.966744 -0.188527
1.1595e+08   0.991354 -0.07514 0.0118073 0.0430323 -0.00033057 0.00076089 -0.00452986 0.0157946
             0.0139548 0.036681 0.98379 -0.0782278 -0.00224032 0.00858512 0.0026202 0.00318443
             -0.000294707 0.000498084 0.000370709 0.00637902 1.00003 -0.0140869 0.000132297 -0.000153217
             0.00210648 0.00542718 0.00149371 0.00598696 -0.000645741 0.000538507 0.965825 -0.19072
1.174e+08    0.991091 -0.0760188 0.0120395 0.0435391 -0.000324959 0.000767186 -0.00439192 0.0159457
             0.0140836 0.0371641 0.983487 -0.0791726 -0.00220977 0.00868375 0.00263891 0.00322207
             -0.000292188 0.000501517 0.000378355 0.0064581 1.00002 -0.0142622 0.000129726 -0.000154077
             0.00210472 0.00551076 0.00155547 0.00603753 -0.00064091 0.000543724 0.964895 -0.192906
1.1885e+08   0.990826 -0.0768956 0.0122744 0.0440446 -0.000319333 0.00077338 -0.00425295 0.0160954
             0.0142147 0.0376478 0.98318 -0.0801161 -0.00217896 0.00878208 0.00265788 0.00325961
             -0.000289701 0.000504871 0.000386099 0.00653714 1.00002 -0.0144375 0.000127138 -0.000154903
             0.00210327 0.00559481 0.00161763 0.00608732 -0.000636039 0.000548889 0.963957 -0.195085
1.203e+08    0.990559 -0.0777705 0.0125119 0.0445491 -0.000313696 0.00077947 -0.00411296 0.0162434
             0.0143484 0.0381321 0.982869 -0.0810582 -0.00214788 0.00888012 0.00267708 0.00329706
             -0.000287247 0.000508144 0.00039394 0.00661616 1.00002 -0.0146127 0.000124534 -0.000155694
             0.00210212 0.00567933 0.00168016 0.00613631 -0.000631129 0.000554002 0.963009 -0.197258
1.2175e+08   0.990289 -0.0786435 0.0127522 0.0450523 -0.000308048 0.000785456 -0.00397198 0.01639
             0.0144845 0.0386169 0.982555 -0.0819989 -0.00211654 0.00897785 0.00269653 0.00333441
             -0.00028483 0.000511338 0.000401878 0.00669515 1.00001 -0.014788 0.000121915 -0.00015645
             0.0021013 0.00576433 0.00174305 0.00618451 -0.000626179 0.000559063 0.962052 -0.199423
1.232e+08    0.990017 -0.0795145 0.0129951 0.0455544 -0.000302392 0.000791339 -0.00383002 0.016535
             0.0146231 0.0391023 0.982236 -0.0829381 -0.00208495 0.00907528 0.00271622 0.00337166
             -0.00028245 0.000514453 0.000409913 0.00677411 1.00001 -0.0149632 0.000119282 -0.00015717
             0.0021008 0.00584981 0.0018063 0.00623191 -0.000621191 0.000564072 0.961086 -0.201581
1.2465e+08   0.989743 -0.0803837 0.0132407 0.0460553 -0.000296729 0.000797117 -0.0036871 0.0166784
             0.0147643 0.0395883 0.981914 -0.083876 -0.0020531 0.00917241 0.00273616 0.00340881
             -0.00028011 0.000517489 0.000418046 0.00685303 1 -0.0151384 0.000116634 -0.000157855
             0.00210064 0.00593576 0.00186989 0.00627851 -0.000616165 0.000569027 0.96011 -0.203732
1.261e+08    0.989467 -0.0812509 0.013489 0.046555 -0.000291061 0.000802791 -0.00354326 0.0168203
             0.014908 0.0400747 0.981588 -0.0848124 -0.002021 0.00926923 0.00275634 0.00344586
             -0.000277811 0.000520448 0.000426276 0.00693193 0.999996 -0.0153135 0.000113973 -0.000158504
             0.00210083 0.00602218 0.00193382 0.00632431 -0.000611102 0.00057393 0.959125 -0.205876
1.2755e+08   0.989189 -0.0821162 0.0137399 0.0470534 -0.00028539 0.000808361 -0.0033985 0.0169606
             0.0150542 0.0405617 0.981258 -0.0857473 -0.00198866 0.00936574 0.00277677 0.0034828
             -0.000275555 0.000523329 0.000434603 0.00701079 0.999991 -0.0154886 0.000111298 -0.000159118
             0.00210138 0.00610907 0.00199806 0.00636931 -0.000606003 0.000578779 0.958132 -0.208013
1.29e+08     0.988909 -0.0829795 0.0139935 0.0475507 -0.000279717 0.000813827 -0.00325286 0.0170993
             0.0152031 0.0410491 0.980924 -0.0866807 -0.00195607 0.00946194 0.00279743 0.00351963
             -0.000273344 0.000526133 0.000443027 0.00708961 0.999986 -0.0156637 0.000108611 -0.000159696
             0.00210229 0.00619643 0.0020626 0.00641351 -0.000600868 0.000583574 0.957129 -0.210143
1.3045e+08   0.988627 -0.0838409 0.0142497 0.0480467 -0.000274045 0.000819188 -0.00310635 0.0172365
             0.0153546 0.0415371 0.980587 -0.0876125 -0.00192324 0.00955783 0.00281835 0.00355635
             -0.00027118 0.000528861 0.000451547 0.00716841 0.999981 -0.0158388 0.000105911 -0.000160238
             0.00210358 0.00628426 0.00212745 0.0064569 -0.000595698 0.000588315 0.956118 -0.212265
1.319e+08    0.988342 -0.0847004 0.0145085 0.0485414 -0.000268374 0.000824444 -0.00295899 0.017372
             0.0155087 0.0420255 0.980246 -0.0885428 -0.00189018 0.00965341 0.00283951 0.00359296
             -0.000269064 0.000531513 0.000460165 0.00724717 0.999976 -0.0160138 0.0001032 -0.000160744
             0.00210526 0.00637256 0.00219257 0.00649947 -0.000590494 0.000593001 0.955098 -0.21438
1.3335e+08   0.988056 -0.0855579 0.01477 0.0490349 -0.000262708 0.000829596 -0.00281081 0.017506
             0.0156655 0.0425144 0.979901 -0.0894716 -0.00185689 0.00974867 0.00286091 0.00362946
             -0.000266998 0.000534091 0.00046888 0.00732589 0.99997 -0.0161888 0.000100478 -0.000161213
             0.00210733 0.00646132 0.00225797 0.00654124 -0.000585255 0.000597634 0.954069 -0.216487
1.348e+08    0.987768 -0.0864135 0.0150341 0.0495271 -0.000257047 0.000834643 -0.00266183 0.0176384
             0.015825 0.0430037 0.979552 -0.0903987 -0.00182337 0.00984361 0.00288255 0.00366584
             -0.000264984 0.000536593 0.000477691 0.00740458 0.999965 -0.0163638 9.77447e-05 -0.000161647
             0.00210981 0.00655055 0.00232363 0.0065822 -0.000579984 0.000602211 0.953032 -0.218587
1.3625e+08   0.987477 -0.0872672 0.0153008 0.0500181 -0.000251393 0.000839585 -0.00251207 0.0177691
             0.0159871 0.0434934 0.9792 -0.0913243 -0.00178963 0.00993824 0.00290444 0.0037021
             -0.000263023 0.000539023 0.0004866 0.00748323 0.99996 -0.0165387 9.50015e-05 -0.000162044
             0.0021127 0.00664023 0.00238954 0.00662235 -0.00057468 0.000606733 0.951986 -0.22068
1.377e+08    0.987185 -0.088119 0.0155701 0.0505077 -0.000245749 0.000844422 -0.00236154 0.0178983
             0.016152 0.0439835 0.978844 -0.0922481 -0.00175566 0.0100325 0.00292657 0.00373825
             -0.000261118 0.000541379 0.000495604 0.00756185 0.999955 -0.0167136 9.22487e-05 -0.000162404
             0.00211601 0.00673038 0.00245568 0.00666168 -0.000569345 0.0006112 0.950931 -0.222764
1.3915e+08   0.986891 -0.0889688 0.015842 0.050996 -0.000240115 0.000849155 -0.00221028 0.0180258
             0.0163197 0.044474 0.978484 -0.0931704 -0.00172148 0.0101265 0.00294895 0.00377427
             -0.000259269 0.000543664 0.000504706 0.00764043 0.999949 -0.0168885 8.94867e-05 -0.000162728
             0.00211976 0.00682098 0.00252205 0.0067002 -0.000563978 0.000615611 0.949868 -0.224842
1.406e+08    0.986595 -0.0898167 0.0161165 0.051483 -0.000234495 0.000853783 -0.0020583 0.0181518
             0.0164901 0.0449649 0.97812 -0.0940909 -0.00168709 0.0102202 0.00297156 0.00381017
             -0.00025748 0.000545877 0.000513904 0.00771897 0.999944 -0.0170634 8.67161e-05 -0.000163016
             0.00212395 0.00691204 0.00258864 0.0067379 -0.000558581 0.000619966 0.948797 -0.226911
1.4205e+08   0.986298 -0.0906627 0.0163936 0.0519687 -0.000228888 0.000858307 -0.00190563 0.0182761
             0.0166634 0.0454561 0.977752 -0.0950097 -0.00165249 0.0103135 0.00299443 0.00384594
             -0.00025575 0.00054802 0.000523198 0.00779747 0.999939 -0.0172382 8.39373e-05 -0.000163267
             0.0021286 0.00700354 0.00265543 0.00677479 -0.000553154 0.000624266 0.947718 -0.228973
1.435e+08    0.985998 -0.0915068 0.0166733 0.052453 -0.000223298 0.000862727 -0.00175229 0.0183988
             0.0168394 0.0459477 0.977381 -0.0959267 -0.00161769 0.0104066 0.00301753 0.00388158
             -0.000254082 0.000550094 0.000532588 0.00787593 0.999933 -0.017413 8.11509e-05 -0.000163481
             0.0021337 0.00709549 0.0027224 0.00681087 -0.000547698 0.000628509 0.94663 -0.231028
1.4495e+08   0.985697 -0.092349 0.0169556 0.052936 -0.000217725 0.000867043 -0.00159829 0.0185199
             0.0170183 0.0464396 0.977006 -0.0968421 -0.00158268 0.0104993 0.00304087 0.00391709
             -0.000252478 0.000552099 0.000542074 0.00795435 0.999928 -0.0175877 7.83575e-05 -0.000163659
             0.00213927 0.00718789 0.00278956 0.00684613 -0.000542214 0.000632696 0.945534 -0.233074
1.464e+08    0.985394 -0.0931893 0.0172404 0.0534176 -0.000212172 0.000871255 -0.00144366 0.0186394
             0.0172 0.0469317 0.976627 -0.0977556 -0.00154748 0.0105916 0.00306446 0.00395248
             -0.000250939 0.000554036 0.000551657 0.00803274 0.999922 -0.0177625 7.55574e-05 -0.000163799
             0.00214532 0.00728073 0.00285689 0.00688058 -0.000536702 0.000636826 0.94443 -0.235113
1.4785e+08   0.985089 -0.0940277 0.0175278 0.0538978 -0.000206641 0.000875363 -0.00128842 0.0187572
             0.0173846 0.0474242 0.976245 -0.0986673 -0.00151208 0.0106837 0.00308829 0.00398772
             -0.000249467 0.000555907 0.000561335 0.00811108 0.999916 -0.0179371 7.27512e-05 -0.000163904
             0.00215186 0.00737401 0.00292437 0.00691421 -0.000531163 0.000640899 0.943318 -0.237144
1.493e+08    0.984783 -0.0948642 0.0178177 0.0543766 -0.000201133 0.000879368 -0.0011326 0.0188735
             0.0175721 0.0479169 0.975859 -0.0995772 -0.00147649 0.0107754 0.00311236 0.00402283
             -0.000248063 0.000557713 0.000571109 0.00818938 0.999911 -0.0181118 6.99394e-05 -0.000163971
             0.0021589 0.00746772 0.002992 0.00694703 -0.000525597 0.000644915 0.942199 -0.239167
1.5075e+08   0.984474 -0.0956988 0.0181102 0.0548541 -0.00019565 0.00088327 -0.000976207 0.0189881
             0.0177626 0.0484098 0.975469 -0.100485 -0.00144072 0.0108667 0.00313667 0.0040578
             -0.000246729 0.000559454 0.000580978 0.00826764 0.999905 -0.0182865 6.71225e-05 -0.000164001
             0.00216644 0.00756186 0.00305976 0.00697904 -0.000520006 0.000648875 0.941071 -0.241182
1.522e+08    0.984165 -0.0965315 0.0184052 0.0553301 -0.000190193 0.00088707 -0.00081927 0.0191011
             0.0179559 0.0489029 0.975075 -0.101391 -0.00140477 0.0109578 0.00316122 0.00409264
             -0.000245466 0.000561132 0.000590943 0.00834585 0.999899 -0.0184611 6.4301e-05 -0.000163995
             0.0021745 0.00765643 0.00312765 0.00701024 -0.00051439 0.000652777 0.939936 -0.243189
1.5365e+08   0.983853 -0.0973623 0.0187027 0.0558047 -0.000184764 0.000890767 -0.000661808 0.0192124
             0.0181522 0.0493962 0.974678 -0.102296 -0.00136863 0.0110485 0.00318601 0.00412732
             -0.000244276 0.000562747 0.000601003 0.00842402 0.999893 -0.0186356 6.14755e-05 -0.000163952
             0.00218308 0.00775142 0.00319565 0.00704063 -0.000508749 0.000656621 0.938793 -0.245188
1.551e+08    0.98354 -0.0981913 0.0190028 0.0562778 -0.000179366 0.000894362 -0.000503843 0.0193222
             0.0183515 0.0498897 0.974277 -0.103198 -0.00133233 0.0111389 0.00321104 0.00416187
             -0.000243161 0.000564302 0.000611158 0.00850215 0.999888 -0.0188102 5.86463e-05 -0.000163872
             0.0021922 0.00784683 0.00326374 0.0070702 -0.000503084 0.000660408 0.937643 -0.247179
1.5655e+08   0.983225 -0.0990184 0.0193053 0.0567495 -0.000173999 0.000897855 -0.000345396 0.0194303
             0.0185538 0.0503834 0.973872 -0.104098 -0.00129585 0.0112289 0.00323631 0.00419626
             -0.000242121 0.000565796 0.000621408 0.00858023 0.999882 -0.0189847 5.58141e-05 -0.000163755
             0.00220185 0.00794265 0.00333193 0.00709897 -0.000497397 0.000664137 0.936484 -0.249162
1.58e+08     0.982909 -0.0998437 0.0196104 0.0572198 -0.000168666 0.000901247 -0.000186487 0.0195368
             0.0187591 0.0508771 0.973464 -0.104997 -0.0012592 0.0113187 0.00326182 0.00423051
             -0.000241159 0.000567232 0.000631752 0.00865827 0.999876 -0.0191592 5.29792e-05 -0.000163602
             0.00221205 0.00803888 0.0034002 0.00712694 -0.000491687 0.000667809 0.935319 -0.251137
1.5945e+08   0.982591 -0.100667 0.019918 0.0576886 -0.000163368 0.000904539 -2.7137e-05 0.0196417
             0.0189674 0.051371 0.973052 -0.105893 -0.00122239 0.011408 0.00328757 0.0042646
             -0.000240275 0.000568611 0.000642191 0.00873626 0.99987 -0.0193336 5.01423e-05 -0.000163412
             0.00222281 0.00813552 0.00346853 0.0071541 -0.000485955 0.000671422 0.934146 -0.253104
1.609e+08    0.982272 -0.101489 0.020228 0.0581559 -0.000158106 0.00090773 0.000132633 0.0197449
             0.0191788 0.0518649 0.972636 -0.106787 -0.00118543 0.0114971 0.00331355 0.00429854
             -0.000239471 0.000569933 0.000652724 0.00881421 0.999864 -0.019508 4.73037e-05 -0.000163185
             0.00223414 0.00823255 0.00353693 0.00718045 -0.000480202 0.000674978 0.932966 -0.255063
1.6235e+08   0.981951 -0.102309 0.0205406 0.0586217 -0.000152884 0.000910822 0.000292801 0.0198466
             0.0193932 0.0523589 0.972216 -0.10768 -0.0011483 0.0115858 0.00333977 0.00433232
             -0.000238749 0.0005712 0.000663352 0.00889211 0.999858 -0.0196824 4.4464e-05 -0.000162921
             0.00224604 0.00832999 0.00360537 0.00720601 -0.000474429 0.000678475 0.931779 -0.257013
1.638e+08    0.981629 -0.103127 0.0208556 0.059086 -0.000147701 0.000913814 0.000453349 0.0199466
             0.0196107 0.0528529 0.971793 -0.10857 -0.00111103 0.0116742 0.00336623 0.00436594
             -0.00023811 0.000572413 0.000674073 0.00896996 0.999852 -0.0198568 4.16237e-05 -0.000162621
             0.00225852 0.00842781 0.00367384 0.00723077 -0.000468637 0.000681914 0.930584 -0.258955
1.6525e+08   0.981306 -0.103943 0.0211731 0.0595488 -0.00014256 0.000916708 0.000614255 0.020045
             0.0198314 0.0533469 0.971367 -0.109458 -0.0010736 0.0117622 0.00339292 0.00439941
             -0.000237555 0.000573574 0.000684888 0.00904776 0.999846 -0.0200311 3.87833e-05 -0.000162285
             0.0022716 0.00852601 0.00374234 0.00725473 -0.000462825 0.000685295 0.929383 -0.260889
1.667e+08    0.980981 -0.104757 0.021493 0.0600101 -0.000137462 0.000919503 0.000775499 0.0201418
             0.0200551 0.0538409 0.970936 -0.110344 -0.00103604 0.0118499 0.00341984 0.00443271
             -0.000237085 0.000574684 0.000695796 0.00912551 0.99984 -0.0202054 3.59432e-05 -0.000161912
             0.00228527 0.0086246 0.00381085 0.0072779 -0.000456995 0.000688618 0.928174 -0.262815
1.6815e+08   0.980654 -0.10557 0.0218154 0.0604698 -0.00013241 0.000922202 0.000937061 0.020237
             0.0202819 0.0543349 0.970502 -0.111228 -0.000998328 0.0119373 0.00344701 0.00446584
             -0.000236703 0.000575745 0.000706797 0.00920322 0.999833 -0.0203797 3.31039e-05 -0.000161503
             0.00229955 0.00872356 0.00387937 0.00730028 -0.000451147 0.000691882 0.926959 -0.264733
1.696e+08    0.980326 -0.106381 0.0221402 0.060928 -0.000127404 0.000924803 0.00109892 0.0203305
             0.0205119 0.0548287 0.970065 -0.112109 -0.000960484 0.0120243 0.0034744 0.00449881
             -0.000236408 0.000576757 0.000717891 0.00928087 0.999827 -0.0205539 3.0266e-05 -0.000161057
             0.00231445 0.00882289 0.00394788 0.00732187 -0.000445282 0.000695087 0.925736 -0.266642
1.7105e+08   0.979997 -0.10719 0.0224675 0.0613847 -0.000122447 0.000927308 0.00126106 0.0204225
             0.0207451 0.0553225 0.969623 -0.112989 -0.000922506 0.012111 0.00350203 0.00453161
             -0.000236202 0.000577723 0.000729078 0.00935848 0.999821 -0.0207281 2.74298e-05 -0.000160575
