# Hz S RI R 50
1e+08        0.990182 -0.0694754 0.00720414 0.0458017 0.0024985 -0.00135979 -0.000275361 -3.22183e-05
             0.00979377 0.04763 0.98905 -0.0885602 -0.00379653 0.00847356 0.00195267 -0.000874736
             -1.09658e-05 -7.40308e-05 0.000325236 0.00601291 0.999337 -0.0139714 5.74121e-05 -1.51161e-05
             2.15718e-05 -2.38931e-05 2.66899e-06 -9.5928e-06 -1.63788e-06 -1.84906e-06 -0.994825 0.003157
1.0145e+08   0.989954 -0.0704605 0.00744937 0.0464324 0.00248115 -0.00137529 -0.000276153 -3.23474e-05
             0.0100515 0.0482887 0.98872 -0.0898013 -0.00376288 0.00858866 0.00194413 -0.000885017
             -1.68713e-05 -7.36863e-05 0.000334482 0.00609899 0.999336 -0.0141745 5.72817e-05 -1.53071e-05
             2.11079e-05 -2.41155e-05 2.3644e-06 -9.64951e-06 -1.66392e-06 -1.86529e-06 -0.994844 0.00320835
1.029e+08    0.989722 -0.0714446 0.00769785 0.0470617 0.0024636 -0.00139062 -0.000276951 -3.24634e-05
             0.0103127 0.048946 0.988385 -0.0910405 -0.00372884 0.00870343 0.0019355 -0.000895205
             -2.28467e-05 -7.32834e-05 0.000343852 0.00618502 0.999335 -0.0143776 5.71499e-05 -1.54969e-05
             2.0639e-05 -2.4333e-05 2.05658e-06 -9.70297e-06 -1.69019e-06 -1.88109e-06 -0.994864 0.00325991
1.0435e+08   0.989487 -0.0724278 0.00794957 0.0476897 0.00244586 -0.00140577 -0.000277756 -3.25661e-05
             0.0105774 0.0496019 0.988045 -0.0922779 -0.00369441 0.00881789 0.00192679 -0.0009053
             -2.88916e-05 -7.28217e-05 0.000353347 0.006271 0.999334 -0.0145808 5.70166e-05 -1.56857e-05
             2.0165e-05 -2.45454e-05 1.74558e-06 -9.75314e-06 -1.7167e-06 -1.89648e-06 -0.994884 0.00331169
1.058e+08    0.989249 -0.07341 0.00820452 0.0483162 0.00242792 -0.00142075 -0.000278567 -3.26556e-05
             0.0108456 0.0502564 0.987701 -0.0935134 -0.00365961 0.00893203 0.001918 -0.000915299
             -3.50053e-05 -7.23004e-05 0.000362965 0.00635694 0.999333 -0.0147839 5.6882e-05 -1.58734e-05
             1.9686e-05 -2.47527e-05 1.43143e-06 -9.80001e-06 -1.74343e-06 -1.91144e-06 -0.994904 0.00336369
1.0725e+08   0.989007 -0.0743911 0.0084627 0.0489412 0.00240979 -0.00143555 -0.000279385 -3.27317e-05
             0.0111173 0.0509095 0.987353 -0.0947471 -0.00362443 0.00904585 0.00190913 -0.000925204
             -4.11872e-05 -7.1719e-05 0.000372707 0.00644282 0.999332 -0.0149871 5.67461e-05 -1.60599e-05
             1.92021e-05 -2.49549e-05 1.11419e-06 -9.84355e-06 -1.77038e-06 -1.92598e-06 -0.994925 0.00341591
1.087e+08    0.988763 -0.0753713 0.00872408 0.0495648 0.00239147 -0.00145017 -0.000280208 -3.27943e-05
             0.0113925 0.0515612 0.987001 -0.0959789 -0.00358888 0.00915934 0.00190018 -0.000935013
             -4.74366e-05 -7.10769e-05 0.000382572 0.00652866 0.999331 -0.0151903 5.66088e-05 -1.62454e-05
             1.87133e-05 -2.51519e-05 7.93895e-07 -9.88373e-06 -1.79755e-06 -1.94008e-06 -0.994946 0.00346835
1.1015e+08   0.988515 -0.0763505 0.00898865 0.050187 0.00237296 -0.00146461 -0.000281037 -3.28434e-05
             0.0116711 0.0522114 0.986644 -0.0972087 -0.00355297 0.0092725 0.00189115 -0.000944726
             -5.37531e-05 -7.03734e-05 0.00039256 0.00661445 0.99933 -0.0153935 5.64703e-05 -1.64296e-05
             1.82197e-05 -2.53437e-05 4.70589e-07 -9.92053e-06 -1.82493e-06 -1.95375e-06 -0.994966 0.00352102
1.116e+08    0.988264 -0.0773286 0.00925642 0.0508076 0.00235427 -0.00147887 -0.000281872 -3.28789e-05
             0.0119532 0.0528602 0.986283 -0.0984366 -0.00351669 0.00938533 0.00188204 -0.000954342
             -6.0136e-05 -6.9608e-05 0.000402671 0.00670019 0.999328 -0.0155967 5.63304e-05 -1.66128e-05
             1.77213e-05 -2.55303e-05 1.44317e-07 -9.95393e-06 -1.85251e-06 -1.96698e-06 -0.994987 0.00357391
1.1305e+08   0.988011 -0.0783056 0.00952735 0.0514267 0.00233539 -0.00149295 -0.000282712 -3.29007e-05
             0.0122387 0.0535075 0.985917 -0.0996626 -0.00348005 0.00949782 0.00187286 -0.000963861
             -6.65846e-05 -6.878e-05 0.000412903 0.00678588 0.999327 -0.0158 5.61892e-05 -1.67948e-05
             1.72183e-05 -2.57116e-05 -1.84875e-07 -9.98391e-06 -1.8803e-06 -1.97978e-06 -0.995008 0.00362702
1.145e+08    0.987753 -0.0792816 0.00980145 0.0520444 0.00231633 -0.00150685 -0.000283557 -3.29087e-05
             0.0125277 0.0541533 0.985547 -0.100887 -0.00344306 0.00960998 0.0018636 -0.000973282
             -7.30983e-05 -6.78889e-05 0.000423257 0.00687151 0.999326 -0.0160033 5.60468e-05 -1.69757e-05
             1.67106e-05 -2.58875e-05 -5.16942e-07 -1.00104e-05 -1.90827e-06 -1.99213e-06 -0.99503 0.00368036
1.1595e+08   0.987493 -0.0802565 0.0100787 0.0526604 0.00229708 -0.00152055 -0.000284407 -3.2903e-05
             0.0128201 0.0547975 0.985173 -0.102108 -0.00340572 0.0097218 0.00185427 -0.000982605
             -7.96765e-05 -6.69342e-05 0.000433732 0.0069571 0.999325 -0.0162066 5.59031e-05 -1.71554e-05
             1.61984e-05 -2.6058e-05 -8.51841e-07 -1.00335e-05 -1.93644e-06 -2.00404e-06 -0.995051 0.00373393
1.174e+08    0.98723 -0.0812304 0.0103591 0.053275 0.00227767 -0.00153407 -0.000285262 -3.28833e-05
             0.0131159 0.0554403 0.984794 -0.103328 -0.00336803 0.00983327 0.00184487 -0.000991829
             -8.63186e-05 -6.59152e-05 0.000444328 0.00704263 0.999324 -0.0164099 5.57582e-05 -1.73339e-05
             1.56817e-05 -2.62232e-05 -1.18952e-06 -1.00531e-05 -1.96479e-06 -2.0155e-06 -0.995073 0.00378772
1.1885e+08   0.986963 -0.0822031 0.0106426 0.0538879 0.00225807 -0.0015474 -0.000286122 -3.28497e-05
             0.0134152 0.0560814 0.984412 -0.104546 -0.00333 0.0099444 0.0018354 -0.00100095
             -9.3024e-05 -6.48314e-05 0.000455045 0.00712811 0.999323 -0.0166132 5.56121e-05 -1.75113e-05
             1.51605e-05 -2.63829e-05 -1.52995e-06 -1.00692e-05 -1.99332e-06 -2.02651e-06 -0.995095 0.00384175
1.203e+08    0.986694 -0.0831747 0.0109292 0.0544993 0.0022383 -0.00156055 -0.000286987 -3.2802e-05
             0.0137178 0.056721 0.984025 -0.105762 -0.00329163 0.0100552 0.00182586 -0.00100998
             -9.97919e-05 -6.36823e-05 0.000465882 0.00721353 0.999321 -0.0168166 5.54649e-05 -1.76875e-05
             1.4635e-05 -2.65371e-05 -1.87307e-06 -1.00817e-05 -2.02202e-06 -2.03707e-06 -0.995117 0.003896
1.2175e+08   0.986421 -0.0841452 0.0112189 0.0551091 0.00221836 -0.00157349 -0.000287856 -3.27404e-05
             0.0140238 0.0573591 0.983633 -0.106976 -0.00325292 0.0101656 0.00181626 -0.00101891
             -0.000106622 -6.24673e-05 0.000476838 0.0072989 0.99932 -0.01702 5.53164e-05 -1.78626e-05
             1.41052e-05 -2.66857e-05 -2.21884e-06 -1.00908e-05 -2.05088e-06 -2.04717e-06 -0.995139 0.00395049
1.232e+08    0.986145 -0.0851146 0.0115118 0.0557173 0.00219825 -0.00158625 -0.000288729 -3.26646e-05
             0.0143332 0.0579955 0.983238 -0.108187 -0.00321389 0.0102757 0.00180658 -0.00102773
             -0.000113513 -6.11859e-05 0.000487914 0.00738422 0.999319 -0.0172234 5.51668e-05 -1.80364e-05
             1.35711e-05 -2.68289e-05 -2.56721e-06 -1.00962e-05 -2.07991e-06 -2.05682e-06 -0.995161 0.00400521
1.2465e+08   0.985866 -0.0860828 0.0118077 0.0563239 0.00217797 -0.00159881 -0.000289606 -3.25746e-05
             0.014646 0.0586303 0.982838 -0.109397 -0.00317453 0.0103854 0.00179685 -0.00103646
             -0.000120465 -5.98376e-05 0.000499109 0.00746948 0.999317 -0.0174268 5.5016e-05 -1.82091e-05
             1.30329e-05 -2.69664e-05 -2.91815e-06 -1.00981e-05 -2.10909e-06 -2.06602e-06 -0.995183 0.00406016
1.261e+08    0.985584 -0.0870498 0.0121066 0.0569288 0.00215753 -0.00161118 -0.000290487 -3.24705e-05
             0.0149622 0.0592634 0.982434 -0.110604 -0.00313484 0.0104948 0.00178705 -0.00104508
             -0.000127476 -5.84218e-05 0.000510422 0.00755469 0.999316 -0.0176303 5.48641e-05 -1.83806e-05
             1.24905e-05 -2.70983e-05 -3.2716e-06 -1.00964e-05 -2.13842e-06 -2.07475e-06 -0.995206 0.00411535
1.2755e+08   0.985299 -0.0880157 0.0124086 0.057532 0.00213693 -0.00162335 -0.000291371 -3.23522e-05
             0.0152817 0.0598949 0.982026 -0.11181 -0.00309484 0.0106038 0.00177719 -0.0010536
             -0.000134548 -5.6938e-05 0.000521854 0.00763984 0.999315 -0.0178338 5.47111e-05 -1.85509e-05
             1.19441e-05 -2.72245e-05 -3.62751e-06 -1.00911e-05 -2.1679e-06 -2.08302e-06 -0.995229 0.00417076
1.29e+08     0.985011 -0.0889803 0.0127137 0.0581336 0.00211616 -0.00163532 -0.000292259 -3.22195e-05
             0.0156045 0.0605248 0.981614 -0.113012 -0.00305453 0.0107125 0.00176727 -0.00106203
             -0.000141677 -5.53858e-05 0.000533403 0.00772494 0.999313 -0.0180373 5.45571e-05 -1.872e-05
             1.13937e-05 -2.73451e-05 -3.98585e-06 -1.00822e-05 -2.19751e-06 -2.09083e-06 -0.995251 0.00422642
1.3045e+08   0.984719 -0.0899438 0.0130218 0.0587336 0.00209524 -0.00164709 -0.000293151 -3.20726e-05
             0.0159307 0.0611529 0.981198 -0.114213 -0.0030139 0.0108208 0.00175729 -0.00107034
             -0.000148865 -5.37646e-05 0.00054507 0.00780997 0.999312 -0.0182408 5.44019e-05 -1.88879e-05
             1.08394e-05 -2.74599e-05 -4.34656e-06 -1.00697e-05 -2.22726e-06 -2.09817e-06 -0.995274 0.00428231
1.319e+08    0.984425 -0.090906 0.0133329 0.0593318 0.00207416 -0.00165866 -0.000294045 -3.19113e-05
             0.0162602 0.0617794 0.980777 -0.115412 -0.00297297 0.0109287 0.00174725 -0.00107856
             -0.00015611 -5.2074e-05 0.000556853 0.00789495 0.99931 -0.0184444 5.42457e-05 -1.90546e-05
             1.02812e-05 -2.7569e-05 -4.70961e-06 -1.00535e-05 -2.25713e-06 -2.10505e-06 -0.995298 0.00433843
1.3335e+08   0.984128 -0.091867 0.013647 0.0599283 0.00205293 -0.00167003 -0.000294943 -3.17356e-05
             0.016593 0.0624041 0.980352 -0.116608 -0.00293174 0.0110362 0.00173716 -0.00108668
             -0.000163412 -5.03135e-05 0.000568753 0.00797987 0.999309 -0.0186479 5.40885e-05 -1.92201e-05
             9.71921e-06 -2.76724e-05 -5.07494e-06 -1.00336e-05 -2.28712e-06 -2.11146e-06 -0.995321 0.00439479
1.348e+08    0.983827 -0.0928268 0.0139641 0.0605231 0.00203154 -0.00168119 -0.000295843 -3.15455e-05
             0.0169291 0.0630271 0.979923 -0.117802 -0.00289022 0.0111434 0.00172701 -0.00109469
             -0.00017077 -4.84827e-05 0.000580769 0.00806474 0.999307 -0.0188515 5.39303e-05 -1.93844e-05
             9.15352e-06 -2.77699e-05 -5.44252e-06 -1.00101e-05 -2.31723e-06 -2.1174e-06 -0.995344 0.00445139
1.3625e+08   0.983524 -0.0937853 0.0142841 0.0611161 0.00201001 -0.00169215 -0.000296746 -3.1341e-05
             0.0172685 0.0636483 0.979491 -0.118994 -0.0028484 0.0112502 0.00171681 -0.0011026
             -0.000178183 -4.65809e-05 0.000592901 0.00814954 0.999306 -0.0190552 5.37711e-05 -1.95474e-05
             8.58417e-06 -2.78616e-05 -5.81229e-06 -9.98297e-06 -2.34745e-06 -2.12287e-06 -0.995367 0.00450823
1.377e+08    0.983217 -0.0947426 0.0146072 0.0617074 0.00198833 -0.00170291 -0.000297651 -3.11221e-05
             0.0176111 0.0642678 0.979054 -0.120183 -0.00280629 0.0113567 0.00170655 -0.00111041
             -0.00018565 -4.46079e-05 0.000605148 0.00823428 0.999304 -0.0192588 5.36108e-05 -1.97093e-05
             8.01122e-06 -2.79474e-05 -6.18421e-06 -9.95211e-06 -2.37778e-06 -2.12787e-06 -0.995391 0.0045653
1.3915e+08   0.982907 -0.0956985 0.0149331 0.062297 0.0019665 -0.00171346 -0.000298559 -3.08887e-05
             0.0179571 0.0648855 0.978613 -0.12137 -0.0027639 0.0114628 0.00169625 -0.00111812
             -0.000193172 -4.25632e-05 0.00061751 0.00831897 0.999303 -0.0194625 5.34497e-05 -1.987e-05
             7.43474e-06 -2.80273e-05 -6.55823e-06 -9.91756e-06 -2.4082e-06 -2.1324e-06 -0.995415 0.00462261
1.406e+08    0.982594 -0.0966532 0.0152621 0.0628847 0.00194453 -0.0017238 -0.000299469 -3.06408e-05
             0.0183063 0.0655013 0.978168 -0.122555 -0.00272123 0.0115684 0.0016859 -0.00112572
             -0.000200747 -4.04463e-05 0.000629986 0.00840359 0.999301 -0.0196662 5.32875e-05 -2.00294e-05
             6.8548e-06 -2.81014e-05 -6.93431e-06 -9.87931e-06 -2.43872e-06 -2.13646e-06 -0.995438 0.00468016
1.4205e+08   0.982279 -0.0976066 0.0155939 0.0634707 0.00192242 -0.00173393 -0.000300381 -3.03785e-05
             0.0186587 0.0661154 0.977718 -0.123738 -0.00267828 0.0116738 0.0016755 -0.00113322
             -0.000208374 -3.82568e-05 0.000642576 0.00848815 0.999299 -0.0198699 5.31245e-05 -2.01877e-05
             6.27146e-06 -2.81695e-05 -7.31241e-06 -9.83735e-06 -2.46932e-06 -2.14004e-06 -0.995462 0.00473794
1.435e+08    0.98196 -0.0985586 0.0159287 0.0640549 0.00190017 -0.00174386 -0.000301295 -3.01016e-05
             0.0190144 0.0667276 0.977265 -0.124918 -0.00263506 0.0117787 0.00166505 -0.00114062
             -0.000216054 -3.59943e-05 0.000655279 0.00857265 0.999298 -0.0200736 5.29605e-05 -2.03447e-05
             5.68478e-06 -2.82317e-05 -7.69247e-06 -9.79167e-06 -2.5e-06 -2.14315e-06 -0.995486 0.00479597
1.4495e+08   0.981638 -0.0995094 0.0162663 0.0646372 0.00187779 -0.00175357 -0.00030221 -2.98102e-05
             0.0193733 0.067338 0.976808 -0.126095 -0.00259158 0.0118833 0.00165456 -0.00114791
             -0.000223784 -3.36583e-05 0.000668096 0.00865709 0.999296 -0.0202774 5.27957e-05 -2.05005e-05
             5.09484e-06 -2.82879e-05 -8.07446e-06 -9.74227e-06 -2.53076e-06 -2.14578e-06 -0.99551 0.00485423
1.464e+08    0.981313 -0.100459 0.0166069 0.0652178 0.00185527 -0.00176308 -0.000303127 -2.95043e-05
             0.0197354 0.0679465 0.976347 -0.127271 -0.00254783 0.0119874 0.00164402 -0.0011551
             -0.000231566 -3.12485e-05 0.000681025 0.00874147 0.999294 -0.0204812 5.26299e-05 -2.06551e-05
             4.5017e-06 -2.83381e-05 -8.45833e-06 -9.68915e-06 -2.56159e-06 -2.14794e-06 -0.995535 0.00491273
1.4785e+08   0.980986 -0.101407 0.0169503 0.0657965 0.00183263 -0.00177237 -0.000304045 -2.91839e-05
             0.0201008 0.0685531 0.975882 -0.128443 -0.00250382 0.0120912 0.00163344 -0.00116219
             -0.000239397 -2.87645e-05 0.000694067 0.00882578 0.999292 -0.020685 5.24633e-05 -2.08084e-05
             3.90541e-06 -2.83823e-05 -8.84404e-06 -9.63229e-06 -2.59249e-06 -2.14962e-06 -0.995559 0.00497147
1.493e+08    0.980655 -0.102353 0.0172966 0.0663733 0.00180985 -0.00178145 -0.000304964 -2.8849e-05
             0.0204693 0.0691579 0.975413 -0.129614 -0.00245957 0.0121946 0.00162282 -0.00116917
             -0.000247277 -2.62058e-05 0.00070722 0.00891003 0.999291 -0.0208889 5.22959e-05 -2.09606e-05
             3.30606e-06 -2.84205e-05 -9.23153e-06 -9.5717e-06 -2.62344e-06 -2.15083e-06 -0.995583 0.00503045
1.5075e+08   0.980321 -0.103299 0.0176457 0.0669483 0.00178694 -0.00179031 -0.000305884 -2.84996e-05
             0.020841 0.0697607 0.97494 -0.130782 -0.00241506 0.0122977 0.00161216 -0.00117605
             -0.000255205 -2.35722e-05 0.000720484 0.00899422 0.999289 -0.0210927 5.21276e-05 -2.11115e-05
             2.70369e-06 -2.84527e-05 -9.62077e-06 -9.50737e-06 -2.65445e-06 -2.15156e-06 -0.995608 0.00508966
1.522e+08    0.979984 -0.104243 0.0179977 0.0675214 0.00176392 -0.00179896 -0.000306805 -2.81357e-05
             0.0212158 0.0703616 0.974463 -0.131947 -0.0023703 0.0124003 0.00160146 -0.00118283
             -0.000263181 -2.08631e-05 0.000733859 0.00907834 0.999287 -0.0212966 5.19585e-05 -2.12612e-05
             2.09839e-06 -2.84787e-05 -1.00117e-05 -9.4393e-06 -2.6855e-06 -2.15181e-06 -0.995632 0.00514912
1.5365e+08   0.979644 -0.105185 0.0183525 0.0680926 0.00174077 -0.0018074 -0.000307727 -2.77572e-05
             0.0215938 0.0709606 0.973983 -0.13311 -0.00232531 0.0125026 0.00159073 -0.0011895
             -0.000271205 -1.80783e-05 0.000747345 0.00916239 0.999285 -0.0215005 5.17887e-05 -2.14097e-05
             1.49021e-06 -2.84987e-05 -1.04043e-05 -9.36748e-06 -2.7166e-06 -2.15159e-06 -0.995657 0.00520881
1.551e+08    0.979302 -0.106126 0.0187101 0.0686619 0.0017175 -0.00181561 -0.000308649 -2.73643e-05
             0.021975 0.0715575 0.973498 -0.13427 -0.00228008 0.0126044 0.00157996 -0.00119607
             -0.000279274 -1.52174e-05 0.00076094 0.00924638 0.999283 -0.0217045 5.1618e-05 -2.1557e-05
             8.79212e-07 -2.85126e-05 -1.07985e-05 -9.29192e-06 -2.74773e-06 -2.15089e-06 -0.995681 0.00526874
1.5655e+08   0.978956 -0.107066 0.0190704 0.0692293 0.00169411 -0.00182362 -0.000309571 -2.69569e-05
             0.0223593 0.0721526 0.97301 -0.135428 -0.00223462 0.0127059 0.00156915 -0.00120254
             -0.000287389 -1.22801e-05 0.000774645 0.00933031 0.999281 -0.0219085 5.14466e-05 -2.17031e-05
             2.6547e-07 -2.85204e-05 -1.11943e-05 -9.21261e-06 -2.7789e-06 -2.14972e-06 -0.995706 0.00532891
1.58e+08     0.978607 -0.108004 0.0194336 0.0697947 0.00167061 -0.0018314 -0.000310494 -2.65351e-05
             0.0227467 0.0727456 0.972517 -0.136583 -0.00218892 0.012807 0.00155831 -0.00120891
             -0.00029555 -9.26598e-06 0.000788459 0.00941417 0.999279 -0.0221125 5.12744e-05 -2.18479e-05
             -3.50954e-07 -2.85221e-05 -1.15916e-05 -9.12956e-06 -2.81008e-06 -2.14807e-06 -0.995731 0.00538932
1.5945e+08   0.978256 -0.108941 0.0197995 0.0703583 0.00164699 -0.00183897 -0.000311416 -2.60988e-05
             0.0231373 0.0733366 0.972021 -0.137736 -0.00214301 0.0129076 0.00154744 -0.00121517
             -0.000303754 -6.17471e-06 0.000802382 0.00949796 0.999277 -0.0223165 5.11015e-05 -2.19915e-05
             -9.69997e-07 -2.85177e-05 -1.19904e-05 -9.04276e-06 -2.84129e-06 -2.14594e-06 -0.995756 0.00544996
1.609e+08    0.977901 -0.109876 0.0201682 0.0709198 0.00162326 -0.00184632 -0.000312339 -2.56481e-05
             0.0235309 0.0739256 0.971521 -0.138886 -0.00209687 0.0130079 0.00153654 -0.00122133
             -0.000312002 -3.00599e-06 0.000816412 0.00958169 0.999275 -0.0225205 5.09279e-05 -2.2134e-05
             -1.59159e-06 -2.85071e-05 -1.23907e-05 -8.95221e-06 -2.87251e-06 -2.14334e-06 -0.995781 0.00551084
1.6235e+08   0.977544 -0.11081 0.0205397 0.0714795 0.00159943 -0.00185344 -0.000313261 -2.51829e-05
             0.0239276 0.0745126 0.971017 -0.140033 -0.00205053 0.0131078 0.0015256 -0.00122739
             -0.000320293 2.40508e-07 0.000830551 0.00966534 0.999273 -0.0227246 5.07536e-05 -2.22752e-05
             -2.21568e-06 -2.84903e-05 -1.27923e-05 -8.85793e-06 -2.90374e-06 -2.14027e-06 -0.995806 0.00557196
1.638e+08    0.977183 -0.111742 0.0209138 0.0720371 0.00157549 -0.00186035 -0.000314183 -2.47034e-05
             0.0243274 0.0750975 0.97051 -0.141178 -0.00200397 0.0132073 0.00151464 -0.00123334
             -0.000328626 3.5651e-06 0.000844796 0.00974893 0.99927 -0.0229287 5.05787e-05 -2.24152e-05
             -2.84219e-06 -2.84674e-05 -1.31953e-05 -8.7599e-06 -2.93498e-06 -2.13672e-06 -0.995831 0.00563331
1.6525e+08   0.97682 -0.112673 0.0212907 0.0725928 0.00155144 -0.00186704 -0.000315104 -2.42096e-05
             0.0247302 0.0756804 0.969999 -0.142321 -0.0019572 0.0133065 0.00150365 -0.0012392
             -0.000337 6.96808e-06 0.000859148 0.00983246 0.999268 -0.0231328 5.0403e-05 -2.25539e-05
             -3.47107e-06 -2.84383e-05 -1.35996e-05 -8.65813e-06 -2.96621e-06 -2.1327e-06 -0.995856 0.0056949
1.667e+08    0.976454 -0.113602 0.0216702 0.0731465 0.00152729 -0.00187351 -0.000316025 -2.37014e-05
             0.0251361 0.0762612 0.969484 -0.14346 -0.00191023 0.0134052 0.00149264 -0.00124495
             -0.000345415 1.04498e-05 0.000873606 0.00991591 0.999266 -0.0233369 5.02267e-05 -2.26915e-05
             -4.10224e-06 -2.8403e-05 -1.40052e-05 -8.55264e-06 -2.99743e-06 -2.12821e-06 -0.995881 0.00575673
1.6815e+08   0.976084 -0.11453 0.0220525 0.0736982 0.00150305 -0.00187975 -0.000316944 -2.3179e-05
             0.0255451 0.0768399 0.968965 -0.144597 -0.00186307 0.0135035 0.0014816 -0.0012506
             -0.00035387 1.40104e-05 0.00088817 0.00999929 0.999264 -0.0235411 5.00498e-05 -2.28279e-05
             -4.73564e-06 -2.83616e-05 -1.4412e-05 -8.44341e-06 -3.02864e-06 -2.12325e-06 -0.995906 0.00581879
1.696e+08    0.975712 -0.115456 0.0224374 0.0742479 0.00147871 -0.00188578 -0.000317863 -2.26422e-05
