# Hz S RI R 50
1e+08        0.993429 -0.0930305 0.0165127 0.0563088 -0.00340777 0.00304562 0.00242125 0.00280801
             0.0193685 0.0498933 0.97507 -0.0955063 0.000924963 0.00551712 0.00523518 0.00659406
             -0.000449901 0.000663566 0.000472826 0.00599085 0.999952 -0.013332 -0.000153176 0.000237732
             0.000894192 0.00587985 0.00329593 0.00970445 0.000213114 -0.000236363 0.973418 -0.162356
1.0145e+08   0.992837 -0.0941877 0.0169783 0.0570078 -0.00337786 0.00307973 0.0023594 0.00289035
             0.0197212 0.050554 0.97449 -0.0967628 0.000927089 0.0055981 0.00529903 0.00667173
             -0.000445847 0.000670132 0.000480847 0.00607694 0.999948 -0.0135248 -0.000150709 0.000240122
             0.000883538 0.00598254 0.00340807 0.00980629 0.000208863 -0.000238216 0.972642 -0.164573
1.029e+08    0.99224 -0.0953376 0.0174491 0.0577022 -0.00334768 0.00311344 0.00229745 0.00297425
             0.0200784 0.051212 0.973904 -0.098014 0.000929269 0.00567911 0.00536356 0.00674868
             -0.000441805 0.00067659 0.000488984 0.006163 0.999944 -0.0137176 -0.000148226 0.000242472
             0.000873061 0.00608589 0.00352121 0.00990662 0.000204576 -0.000240008 0.971857 -0.166785
1.0435e+08   0.991638 -0.0964802 0.0179247 0.0583919 -0.00331722 0.00314676 0.00223543 0.00305974
             0.02044 0.0518674 0.97331 -0.0992599 0.000931503 0.00576016 0.00542875 0.00682491
             -0.000437779 0.00068294 0.000497239 0.00624902 0.99994 -0.0139105 -0.000145727 0.000244782
             0.000862772 0.00618991 0.00363531 0.0100054 0.000200254 -0.000241739 0.971062 -0.16899
1.058e+08    0.99103 -0.0976155 0.0184053 0.0590769 -0.00328649 0.00317967 0.00217337 0.0031468
             0.020806 0.0525202 0.97271 -0.1005 0.000933793 0.00584125 0.0054946 0.0069004
             -0.000433771 0.000689182 0.00050561 0.006335 0.999936 -0.0141032 -0.000143213 0.000247051
             0.000852686 0.0062946 0.00375035 0.0101027 0.000195897 -0.000243406 0.970257 -0.17119
1.0725e+08   0.990418 -0.0987434 0.0188908 0.0597572 -0.00325551 0.00321217 0.00211129 0.00323545
             0.0211765 0.0531702 0.972103 -0.101736 0.000936138 0.00592237 0.00556109 0.00697516
             -0.000429784 0.000695317 0.000514098 0.00642094 0.999932 -0.014296 -0.000140685 0.00024928
             0.000842813 0.00639996 0.00386632 0.0101984 0.000191507 -0.000245011 0.969443 -0.173385
1.087e+08    0.989802 -0.099864 0.019381 0.0604327 -0.00322427 0.00324427 0.00204924 0.00332569
             0.0215513 0.0538176 0.97149 -0.102966 0.000938541 0.00600353 0.00562822 0.00704918
             -0.000425819 0.000701344 0.000522702 0.00650684 0.999928 -0.0144887 -0.000138143 0.000251468
             0.000833166 0.006506 0.00398318 0.0102926 0.000187085 -0.000246552 0.968619 -0.175573
1.1015e+08   0.989181 -0.100977 0.019876 0.0611034 -0.00319279 0.00327596 0.00198723 0.00341753
             0.0219304 0.0544622 0.97087 -0.10419 0.000941002 0.00608472 0.00569598 0.00712246
             -0.00042188 0.000707263 0.000531423 0.00659271 0.999923 -0.0146815 -0.000135589 0.000253615
             0.000823758 0.00661271 0.00410092 0.0103852 0.000182631 -0.00024803 0.967786 -0.177755
1.116e+08    0.988555 -0.102083 0.0203756 0.0617693 -0.00316106 0.00330723 0.00192529 0.00351098
             0.0223139 0.055104 0.970243 -0.105409 0.000943521 0.00616595 0.00576435 0.00719497
             -0.000417968 0.000713076 0.000540261 0.00667853 0.999919 -0.0148742 -0.000133022 0.000255721
             0.000814602 0.00672011 0.00421952 0.0104763 0.000178146 -0.000249444 0.966944 -0.179932
1.1305e+08   0.987926 -0.103181 0.0208798 0.0624303 -0.0031291 0.00333809 0.00186347 0.00360603
             0.0227017 0.055743 0.96961 -0.106622 0.0009461 0.00624722 0.00583333 0.00726673
             -0.000414088 0.000718782 0.000549215 0.00676431 0.999915 -0.0150669 -0.000130444 0.000257785
             0.000805711 0.00682819 0.00433893 0.0105658 0.000173632 -0.000250793 0.966092 -0.182102
1.145e+08    0.987292 -0.104272 0.0213886 0.0630864 -0.0030969 0.00336853 0.00180178 0.00370269
             0.0230938 0.0563792 0.968971 -0.10783 0.00094874 0.00632852 0.00590291 0.00733773
             -0.00041024 0.000724382 0.000558285 0.00685004 0.99991 -0.0152595 -0.000127855 0.000259808
             0.000797096 0.00693696 0.00445915 0.0106537 0.00016909 -0.000252078 0.965231 -0.184266
1.1595e+08   0.986654 -0.105355 0.0219018 0.0637376 -0.00306449 0.00339855 0.00174025 0.00380096
             0.0234901 0.0570126 0.968326 -0.109032 0.000951441 0.00640985 0.00597307 0.00740796
             -0.000406427 0.000729875 0.000567472 0.00693574 0.999906 -0.0154522 -0.000125256 0.00026179
             0.000788771 0.00704642 0.00458016 0.01074 0.000164519 -0.000253297 0.96436 -0.186425
1.174e+08    0.986012 -0.106431 0.0224195 0.0643838 -0.00303186 0.00342814 0.00167892 0.00390085
             0.0238907 0.057643 0.967674 -0.110228 0.000954204 0.00649122 0.00604381 0.00747741
             -0.000402652 0.000735264 0.000576774 0.00702139 0.999902 -0.0156448 -0.000122648 0.00026373
             0.000780749 0.00715656 0.00470191 0.0108247 0.000159922 -0.000254451 0.963481 -0.188577
1.1885e+08   0.985366 -0.107499 0.0229415 0.0650251 -0.00299901 0.00345731 0.00161782 0.00400235
             0.0242954 0.0582705 0.967016 -0.111418 0.00095703 0.00657263 0.00611512 0.00754608
             -0.000398918 0.000740548 0.000586193 0.00710699 0.999897 -0.0158374 -0.000120031 0.000265629
             0.000773042 0.00726739 0.0048244 0.0109078 0.000155299 -0.00025554 0.962592 -0.190722
1.203e+08    0.984717 -0.108559 0.0234677 0.0656614 -0.00296596 0.00348606 0.00155696 0.00410548
             0.0247044 0.0588951 0.966352 -0.112603 0.00095992 0.00665407 0.00618699 0.00761397
             -0.000395226 0.000745727 0.000595727 0.00719255 0.999893 -0.01603 -0.000117407 0.000267486
             0.000765663 0.00737892 0.00494759 0.0109893 0.000150652 -0.000256562 0.961695 -0.192862
1.2175e+08   0.984064 -0.109613 0.0239982 0.0662926 -0.00293272 0.00351437 0.0014964 0.00421022
             0.0251174 0.0595168 0.965682 -0.113782 0.000962875 0.00673555 0.00625941 0.00768107
             -0.00039158 0.000750804 0.000605377 0.00727806 0.999888 -0.0162225 -0.000114775 0.000269301
             0.000758625 0.00749114 0.00507147 0.0110692 0.000145981 -0.000257518 0.960788 -0.194995
1.232e+08    0.983408 -0.110658 0.0245328 0.0669188 -0.00289928 0.00354225 0.00143614 0.00431658
             0.0255346 0.0601354 0.965006 -0.114955 0.000965896 0.00681706 0.00633236 0.00774738
             -0.000387981 0.000755777 0.000615143 0.00736353 0.999883 -0.0164151 -0.000112137 0.000271075
             0.000751941 0.00760405 0.00519601 0.0111475 0.000141287 -0.000258408 0.959872 -0.197121
1.2465e+08   0.982749 -0.111696 0.0250715 0.0675399 -0.00286565 0.0035697 0.00137623 0.00442456
             0.0259559 0.060751 0.964324 -0.116122 0.000968983 0.0068986 0.00640584 0.00781289
             -0.000384432 0.000760648 0.000625024 0.00744895 0.999879 -0.0166076 -0.000109493 0.000272807
             0.000745623 0.00771765 0.00532119 0.0112241 0.000136572 -0.000259231 0.958948 -0.199242
1.261e+08    0.982086 -0.112726 0.0256143 0.0681559 -0.00283184 0.00359671 0.00131669 0.00453416
             0.0263812 0.0613636 0.963637 -0.117283 0.000972137 0.00698018 0.00647983 0.00787759
             -0.000380936 0.000765419 0.00063502 0.00753431 0.999874 -0.0168001 -0.000106844 0.000274496
             0.000739686 0.00783195 0.00544697 0.0112991 0.000131836 -0.000259986 0.958015 -0.201355
1.2755e+08   0.98142 -0.113749 0.026161 0.0687669 -0.00279786 0.00362329 0.00125755 0.00464537
             0.0268106 0.0619731 0.962943 -0.118438 0.00097536 0.0070618 0.00655434 0.0079415
             -0.000377494 0.000770088 0.000645131 0.00761963 0.999869 -0.0169926 -0.000104191 0.000276145
             0.00073414 0.00794695 0.00557335 0.0113725 0.00012708 -0.000260675 0.957073 -0.203462
1.29e+08     0.980752 -0.114765 0.0267116 0.0693726 -0.00276372 0.00364943 0.00119885 0.0047582
             0.027244 0.0625796 0.962244 -0.119587 0.000978652 0.00714344 0.00662934 0.00800459
             -0.00037411 0.000774659 0.000655357 0.0077049 0.999864 -0.017185 -0.000101534 0.000277751
             0.000729001 0.00806263 0.00570028 0.0114443 0.000122306 -0.000261297 0.956123 -0.205563
1.3045e+08   0.98008 -0.115772 0.027266 0.0699733 -0.00272941 0.00367513 0.0011406 0.00487264
             0.0276814 0.0631829 0.961539 -0.12073 0.000982013 0.00722513 0.00670483 0.00806687
             -0.000370785 0.000779131 0.000665698 0.00779012 0.999859 -0.0173775 -9.88742e-05 0.000279316
             0.000724279 0.00817901 0.00582776 0.0115144 0.000117513 -0.000261851 0.955163 -0.207657
1.319e+08    0.979406 -0.116772 0.0278242 0.0705687 -0.00269494 0.00370038 0.00108285 0.00498869
             0.0281227 0.063783 0.960829 -0.121867 0.000985446 0.00730684 0.00678079 0.00812833
             -0.000367522 0.000783505 0.000676153 0.00787528 0.999854 -0.0175699 -9.62123e-05 0.000280839
             0.000719988 0.00829608 0.00595575 0.0115828 0.000112704 -0.000262337 0.954196 -0.209744
1.3335e+08   0.97873 -0.117765 0.0283861 0.071159 -0.00266033 0.0037252 0.00102561 0.00510635
             0.028568 0.06438 0.960113 -0.122998 0.00098895 0.00738859 0.00685722 0.00818897
             -0.000364323 0.000787783 0.000686723 0.0079604 0.999849 -0.0177623 -9.35488e-05 0.00028232
             0.000716141 0.00841385 0.00608423 0.0116497 0.00010788 -0.000262756 0.95322 -0.211824
1.348e+08    0.97805 -0.11875 0.0289516 0.071744 -0.00262557 0.00374958 0.000968921 0.00522561
             0.0290172 0.0649739 0.959392 -0.124123 0.000992526 0.00747037 0.00693411 0.00824878
             -0.00036119 0.000791965 0.000697406 0.00804545 0.999844 -0.0179547 -9.08846e-05 0.00028376
             0.000712751 0.00853231 0.00621318 0.0117148 0.000103041 -0.000263106 0.952235 -0.213898
1.3625e+08   0.977369 -0.119728 0.0295207 0.0723239 -0.00259068 0.00377351 0.000912809 0.00534646
             0.0294702 0.0655645 0.958665 -0.125241 0.000996176 0.00755218 0.00701145 0.00830777
             -0.000358126 0.000796054 0.000708203 0.00813046 0.999839 -0.018147 -8.82204e-05 0.000285158
             0.000709831 0.00865145 0.00634258 0.0117783 9.81875e-05 -0.000263389 0.951242 -0.215965
1.377e+08    0.976685 -0.120698 0.0300933 0.0728985 -0.00255566 0.00379699 0.000857302 0.00546891
             0.0299271 0.0661518 0.957933 -0.126353 0.0009999 0.00763403 0.00708922 0.00836593
             -0.000355133 0.000800049 0.000719114 0.00821541 0.999834 -0.0183393 -8.55567e-05 0.000286515
             0.000707393 0.00877129 0.00647239 0.0118402 9.33217e-05 -0.000263604 0.950241 -0.218025
1.3915e+08   0.976 -0.12166 0.0306694 0.0734679 -0.00252052 0.00382003 0.000802429 0.00559294
             0.0303878 0.066736 0.957196 -0.127459 0.0010037 0.00771591 0.00716741 0.00842326
             -0.000352213 0.000803953 0.000730138 0.0083003 0.999829 -0.0185317 -8.28942e-05 0.00028783
             0.00070545 0.00889181 0.0066026 0.0119004 8.84442e-05 -0.00026375 0.949232 -0.220078
1.406e+08    0.975312 -0.122615 0.0312488 0.074032 -0.00248525 0.00384262 0.000748219 0.00571855
             0.0308523 0.0673168 0.956453 -0.128558 0.00100757 0.00779782 0.00724602 0.00847975
             -0.000349369 0.000807766 0.000741275 0.00838513 0.999823 -0.0187239 -8.02338e-05 0.000289105
             0.000704015 0.00901301 0.00673318 0.011959 8.3556e-05 -0.000263828 0.948214 -0.222124
1.4205e+08   0.974622 -0.123563 0.0318316 0.0745909 -0.00244988 0.00386477 0.000694701 0.00584574
             0.0313206 0.0678943 0.955706 -0.129652 0.00101152 0.00787976 0.00732504 0.0085354
             -0.000346602 0.00081149 0.000752525 0.00846991 0.999818 -0.0189162 -7.7576e-05 0.000290338
             0.0007031 0.0091349 0.00686412 0.0120159 7.86581e-05 -0.000263838 0.947189 -0.224163
1.435e+08    0.973931 -0.124503 0.0324176 0.0751445 -0.0024144 0.00388646 0.000641902 0.0059745
             0.0317926 0.0684685 0.954953 -0.130738 0.00101555 0.00796173 0.00740445 0.00859021
             -0.000343914 0.000815127 0.000763887 0.00855463 0.999813 -0.0191085 -7.49216e-05 0.00029153
             0.000702719 0.00925747 0.00699537 0.0120712 7.37515e-05 -0.00026378 0.946155 -0.226195
1.4495e+08   0.973238 -0.125436 0.0330068 0.0756928 -0.00237882 0.00390771 0.00058985 0.00610481
             0.0322683 0.0690394 0.954195 -0.131819 0.00101966 0.00804373 0.00748424 0.00864418
             -0.000341308 0.000818676 0.000775361 0.00863929 0.999807 -0.0193007 -7.22712e-05 0.000292682
             0.000702884 0.00938072 0.00712693 0.0121248 6.88371e-05 -0.000263653 0.945113 -0.22822
1.464e+08    0.972544 -0.126362 0.0335991 0.0762358 -0.00234315 0.00392851 0.000538574 0.00623668
             0.0327477 0.0696069 0.953433 -0.132893 0.00102385 0.00812576 0.00756441 0.0086973
             -0.000338786 0.000822141 0.000786947 0.00872389 0.999802 -0.0194929 -6.96254e-05 0.000293793
             0.000703607 0.00950464 0.00725877 0.0121767 6.39159e-05 -0.000263458 0.944064 -0.230238
1.4785e+08   0.971848 -0.12728 0.0341945 0.0767735 -0.0023074 0.00394886 0.0004881 0.00637009
             0.0332307 0.070171 0.952665 -0.13396 0.00102811 0.00820782 0.00764495 0.00874957
             -0.00033635 0.000825523 0.000798645 0.00880843 0.999796 -0.019685 -6.6985e-05 0.000294863
             0.000704901 0.00962923 0.00739086 0.012227 5.8989e-05 -0.000263194 0.943007 -0.232248
1.493e+08    0.971151 -0.128191 0.0347929 0.0773059 -0.00227156 0.00396876 0.000438458 0.00650503
             0.0337173 0.0707317 0.951893 -0.135021 0.00103246 0.00828991 0.00772584 0.00880099
             -0.000334002 0.000828823 0.000810453 0.00889291 0.999791 -0.0198772 -6.43506e-05 0.000295893
             0.000706778 0.0097545 0.00752318 0.0122757 5.40573e-05 -0.000262863 0.941942 -0.234252
1.5075e+08   0.970453 -0.129094 0.0353943 0.077833 -0.00223565 0.00398822 0.000389673 0.0066415
             0.0342075 0.071289 0.951116 -0.136076 0.00103688 0.00837203 0.00780707 0.00885156
             -0.000331744 0.000832042 0.000822372 0.00897732 0.999785 -0.0200693 -6.17229e-05 0.000296883
             0.000709251 0.00988043 0.00765571 0.0123227 4.91218e-05 -0.000262463 0.940869 -0.236248
1.522e+08    0.969753 -0.12999 0.0359985 0.0783548 -0.00219967 0.00400722 0.000341774 0.00677949
             0.0347013 0.0718429 0.950335 -0.137124 0.00104139 0.00845418 0.00788863 0.00890128
             -0.000329577 0.000835183 0.000834402 0.00906167 0.99978 -0.0202614 -5.91025e-05 0.000297834
             0.000712333 0.010007 0.00778843 0.0123681 4.41834e-05 -0.000261995 0.939788 -0.238237
1.5365e+08   0.969053 -0.130879 0.0366056 0.0788713 -0.00216364 0.00402577 0.000294786 0.00691898
             0.0351986 0.0723932 0.949549 -0.138165 0.00104599 0.00853636 0.00797052 0.00895015
             -0.000327504 0.000838247 0.000846542 0.00914595 0.999774 -0.0204535 -5.64901e-05 0.000298744
             0.000716035 0.0101343 0.00792131 0.0124118 3.92432e-05 -0.000261458 0.9387 -0.240219
1.551e+08    0.968352 -0.131761 0.0372154 0.0793825 -0.00212754 0.00404388 0.000248737 0.00705996
             0.0356994 0.0729401 0.948758 -0.1392 0.00105066 0.00861856 0.00805272 0.00899815
             -0.000325527 0.000841236 0.000858791 0.00923017 0.999768 -0.0206456 -5.38862e-05 0.000299615
             0.00072037 0.0102622 0.00805433 0.0124539 3.43022e-05 -0.000260854 0.937605 -0.242193
1.5655e+08   0.96765 -0.132636 0.037828 0.0798883 -0.0020914 0.00406153 0.000203654 0.00720243
             0.0362037 0.0734835 0.947963 -0.140228 0.00105542 0.00870079 0.00813522 0.0090453
             -0.000323648 0.000844151 0.00087115 0.00931433 0.999763 -0.0208376 -5.12916e-05 0.000300447
             0.00072535 0.0103907 0.00818747 0.0124943 2.93612e-05 -0.000260182 0.936502 -0.24416
1.58e+08     0.966947 -0.133504 0.0384431 0.0803888 -0.00205522 0.00407874 0.000159561 0.00734637
             0.0367115 0.0740233 0.947164 -0.14125 0.00106027 0.00878304 0.00821802 0.0090916
             -0.000321867 0.000846994 0.000883618 0.00939842 0.999757 -0.0210297 -4.87069e-05 0.00030124
             0.000730987 0.0105199 0.0083207 0.0125331 2.44213e-05 -0.000259442 0.935392 -0.246119
1.5945e+08   0.966244 -0.134364 0.0390609 0.080884 -0.00201899 0.0040955 0.000116486 0.00749177
             0.0372226 0.0745597 0.94636 -0.142265 0.0010652 0.00886532 0.0083011 0.00913703
             -0.000320188 0.000849767 0.000896194 0.00948244 0.999751 -0.0212217 -4.61327e-05 0.000301994
             0.000737293 0.0106498 0.00845401 0.0125703 1.94834e-05 -0.000258634 0.934274 -0.248072
1.609e+08    0.965541 -0.135218 0.0396811 0.0813738 -0.00198274 0.00411181 7.44548e-05 0.00763862
             0.0377371 0.0750924 0.945552 -0.143273 0.00107022 0.00894763 0.00838445 0.0091816
             -0.000318612 0.000852473 0.000908878 0.00956639 0.999745 -0.0214137 -4.35695e-05 0.00030271
             0.000744281 0.0107803 0.00858736 0.0126059 1.45484e-05 -0.000257759 0.93315 -0.250016
1.6235e+08   0.964837 -0.136065 0.0403039 0.0818584 -0.00194647 0.00412767 3.34918e-05 0.0077869
             0.038255 0.0756216 0.94474 -0.144274 0.00107533 0.00902996 0.00846806 0.00922531
             -0.00031714 0.000855112 0.000921669 0.00965027 0.999739 -0.0216056 -4.10181e-05 0.000303388
             0.000751961 0.0109114 0.00872075 0.0126398 9.61742e-06 -0.000256817 0.932018 -0.251953
1.638e+08    0.964133 -0.136905 0.040929 0.0823376 -0.00191017 0.00414309 -6.3774e-06 0.0079366
             0.0387762 0.0761472 0.943924 -0.145269 0.00108052 0.00911231 0.00855193 0.00926816
             -0.000315775 0.000857686 0.000934568 0.00973408 0.999733 -0.0217975 -3.84791e-05 0.000304028
             0.000760347 0.0110432 0.00885414 0.0126722 4.69126e-06 -0.000255807 0.930879 -0.253883
1.6525e+08   0.963429 -0.137738 0.0415565 0.0828115 -0.00187386 0.00415806 -4.51277e-05 0.00808771
             0.0393007 0.0766691 0.943103 -0.146257 0.0010858 0.00919469 0.00863603 0.00931015
             -0.000314518 0.000860198 0.000947573 0.00981782 0.999727 -0.0219895 -3.59529e-05 0.00030463
             0.000769449 0.0111755 0.00898751 0.0127029 -2.29087e-07 -0.00025473 0.929732 -0.255805
1.667e+08    0.962724 -0.138564 0.0421862 0.0832801 -0.00183755 0.00417259 -8.27346e-05 0.00824021
             0.0398284 0.0771874 0.942279 -0.147239 0.00109118 0.00927709 0.00872037 0.00935127
             -0.00031337 0.00086265 0.000960685 0.00990149 0.999721 -0.0221813 -3.34403e-05 0.000305195
             0.000779279 0.0113085 0.00912085 0.012732 -5.1427e-06 -0.000253587 0.928579 -0.25772
1.6815e+08   0.96202 -0.139383 0.0428182 0.0837434 -0.00180124 0.00418667 -0.000119174 0.00839409
             0.0403594 0.0777021 0.941451 -0.148213 0.00109664 0.00935951 0.00880493 0.00939153
             -0.000312334 0.000865044 0.000973902 0.00998508 0.999715 -0.0223732 -3.09417e-05 0.000305723
             0.000789849 0.0114421 0.00925413 0.0127595 -1.00486e-05 -0.000252377 0.927419 -0.259626
1.696e+08    0.961316 -0.140196 0.0434524 0.0842014 -0.00176493 0.00420031 -0.00015442 0.00854933
             0.0408936 0.0782131 0.940619 -0.149181 0.00110219 0.00944195 0.00888971 0.00943093
             -0.00031141 0.000867381 0.000987224 0.0100686 0.999709 -0.0225651 -2.84578e-05 0.000306215
             0.00080117 0.0115763 0.00938733 0.0127855 -1.4946e-05 -0.0002511 0.926252 -0.261526
1.7105e+08   0.960612 -0.141002 0.0440886 0.0846541 -0.00172863 0.00421351 -0.000188452 0.00870592
             0.041431 0.0787205 0.939783 -0.150142 0.00110784 0.00952442 0.00897468 0.00946947
             -0.0003106 0.000869664 0.00100065 0.0101521 0.999703 -0.0227569 -2.59892e-05 0.00030667
             0.000813255 0.0117111 0.00952043 0.0128098 -1.98338e-05 -0.000249758 0.925079 -0.263417
1.725e+08    0.959909 -0.141801 0.0447269 0.0851015 -0.00169235 0.00422627 -0.000221243 0.00886385
