# Hz S RI R 50
1e+08        0.992536 -0.0714887 0.00927284 0.0475199 4.11755e-05 -1.39584e-05 0.00237822 0.00224034
             0.00928008 0.0475157 0.989084 -0.0886369 -0.00325142 0.0103424 0.00307878 0.000520705
             -0.000303212 0.0001774 0.000318937 0.00824037 1.00017 -0.015289 -0.000533265 0.000289993
             0.000810211 0.0031267 0.000341494 0.00186957 -9.9866e-05 5.71691e-05 0.974413 -0.203926
1.0145e+08   0.992292 -0.0724953 0.00952723 0.0481765 3.48152e-05 -1.2921e-05 0.00239214 0.0022707
             0.00953463 0.0481721 0.988751 -0.0898773 -0.00321668 0.0104848 0.00307943 0.000528457
             -0.000307476 0.000180551 0.000333084 0.00835783 1.00017 -0.01551 -0.000530805 0.000293566
             0.000832587 0.00316771 0.000354639 0.00189367 -9.96134e-05 5.7941e-05 0.97319 -0.206623
1.029e+08    0.992045 -0.0735007 0.00978505 0.0488317 2.83736e-05 -1.18316e-05 0.00240624 0.00230098
             0.00979262 0.0488272 0.988413 -0.0911158 -0.00318152 0.0106269 0.00308008 0.000536216
             -0.000311802 0.000183727 0.000347414 0.0084752 1.00016 -0.0157309 -0.000528317 0.000297113
             0.000855237 0.00320855 0.000367934 0.00191764 -9.9358e-05 5.87106e-05 0.971953 -0.209309
1.0435e+08   0.991795 -0.0745048 0.0100463 0.0494855 2.1851e-05 -1.06895e-05 0.00242053 0.00233117
             0.010054 0.0494809 0.988071 -0.0923524 -0.00314597 0.0107687 0.00308076 0.000543983
             -0.000316189 0.000186931 0.000361926 0.00859249 1.00016 -0.0159517 -0.000525803 0.000300634
             0.00087816 0.0032492 0.000381378 0.0019415 -9.90997e-05 5.94778e-05 0.970701 -0.211984
1.058e+08    0.991541 -0.0755077 0.0103109 0.0501379 1.52479e-05 -9.49418e-06 0.00243499 0.00236127
             0.0103189 0.0501332 0.987724 -0.0935871 -0.00311002 0.0109102 0.00308144 0.000551758
             -0.000320637 0.000190161 0.00037662 0.00870969 1.00015 -0.0161726 -0.000523263 0.000304129
             0.000901354 0.00328967 0.00039497 0.00196523 -9.88387e-05 6.02426e-05 0.969435 -0.214649
1.0725e+08   0.991284 -0.0765092 0.010579 0.0507889 8.56465e-06 -8.24498e-06 0.00244964 0.00239128
             0.0105871 0.0507841 0.987373 -0.0948198 -0.00307367 0.0110513 0.00308215 0.000559542
             -0.000325146 0.000193418 0.000391495 0.00882681 1.00014 -0.0163934 -0.000520697 0.000307598
             0.000924816 0.00332996 0.000408707 0.00198884 -9.85748e-05 6.10051e-05 0.968155 -0.217302
1.087e+08    0.991024 -0.0775095 0.0108505 0.0514385 1.80179e-06 -6.94127e-06 0.00246446 0.00242119
             0.0108587 0.0514335 0.987018 -0.0960505 -0.00303693 0.0111922 0.00308286 0.000567334
             -0.000329717 0.000196704 0.00040655 0.00894384 1.00014 -0.0166142 -0.000518105 0.000311041
             0.000948546 0.00337007 0.000422588 0.00201232 -9.83083e-05 6.17652e-05 0.966861 -0.219945
1.1015e+08   0.99076 -0.0785084 0.0111253 0.0520866 -5.0403e-06 -5.58243e-06 0.00247946 0.00245102
             0.0111337 0.0520814 0.986659 -0.0972793 -0.0029998 0.0113327 0.00308359 0.000575134
             -0.00033435 0.000200017 0.000421784 0.00906078 1.00013 -0.016835 -0.000515487 0.000314457
             0.00097254 0.00340999 0.000436613 0.00203568 -9.8039e-05 6.25228e-05 0.965553 -0.222576
1.116e+08    0.990494 -0.079506 0.0114035 0.0527332 -1.19612e-05 -4.16784e-06 0.00249464 0.00248075
             0.0114121 0.0527279 0.986295 -0.098506 -0.00296228 0.0114729 0.00308434 0.000582942
             -0.000339043 0.000203359 0.000437197 0.00917763 1.00012 -0.0170557 -0.000512845 0.000317846
             0.000996798 0.00344972 0.000450778 0.00205891 -9.77671e-05 6.3278e-05 0.964231 -0.225196
1.1305e+08   0.990224 -0.0805022 0.0116851 0.0533783 -1.89604e-05 -2.6969e-06 0.00251 0.00251038
             0.0116939 0.053373 0.985926 -0.0997308 -0.00292439 0.0116128 0.0030851 0.000590758
             -0.000343798 0.000206731 0.000452788 0.0092944 1.00011 -0.0172764 -0.000510178 0.000321208
             0.00102132 0.00348927 0.000465083 0.00208201 -9.74925e-05 6.40307e-05 0.962895 -0.227805
1.145e+08    0.989951 -0.0814971 0.0119701 0.054022 -2.60376e-05 -1.16899e-06 0.00252553 0.00253992
             0.011979 0.0540164 0.985554 -0.100953 -0.00288612 0.0117524 0.00308588 0.000598583
             -0.000348614 0.000210132 0.000468555 0.00941107 1.00011 -0.017497 -0.000507487 0.000324543
             0.00104609 0.00352862 0.000479527 0.00210498 -9.72153e-05 6.47809e-05 0.961546 -0.230403
1.1595e+08   0.989675 -0.0824906 0.0122583 0.0546641 -3.31922e-05 4.16479e-07 0.00254124 0.00256936
             0.0122675 0.0546584 0.985177 -0.102174 -0.00284748 0.0118916 0.00308667 0.000606417
             -0.000353491 0.000213563 0.000484498 0.00952765 1.0001 -0.0177177 -0.000504771 0.00032785
             0.00107113 0.00356778 0.000494106 0.00212782 -9.69356e-05 6.55287e-05 0.960184 -0.232989
1.174e+08    0.989395 -0.0834827 0.01255 0.0553047 -4.04239e-05 2.06012e-06 0.00255712 0.00259871
             0.0125593 0.0552989 0.984796 -0.103392 -0.00280846 0.0120305 0.00308747 0.000614259
             -0.000358429 0.000217024 0.000500616 0.00964414 1.00009 -0.0179383 -0.000502032 0.000331129
             0.00109642 0.00360675 0.000508821 0.00215053 -9.66532e-05 6.62738e-05 0.958808 -0.235564
1.1885e+08   0.989113 -0.0844735 0.0128449 0.0559437 -4.77321e-05 3.76252e-06 0.00257317 0.00262796
             0.0128544 0.0559377 0.98441 -0.104609 -0.00276909 0.012169 0.0030883 0.000622109
             -0.000363428 0.000220517 0.000516908 0.00976054 1.00009 -0.0181588 -0.00049927 0.000334381
             0.00112196 0.00364552 0.000523669 0.00217311 -9.63684e-05 6.70165e-05 0.957419 -0.238127
1.203e+08    0.988827 -0.0854627 0.0131432 0.0565811 -5.51164e-05 5.52426e-06 0.0025894 0.0026571
             0.0131529 0.056575 0.98402 -0.105823 -0.00272935 0.0123072 0.00308913 0.000629968
             -0.000368488 0.000224041 0.000533374 0.00987684 1.00008 -0.0183793 -0.000496484 0.000337605
             0.00114776 0.00368409 0.000538649 0.00219556 -9.60811e-05 6.77565e-05 0.956017 -0.240678
1.2175e+08   0.988538 -0.0864506 0.0134447 0.057217 -6.25764e-05 7.34595e-06 0.0026058 0.00268615
             0.0134546 0.0572108 0.983626 -0.107035 -0.00268925 0.0124451 0.00308999 0.000637836
             -0.000373609 0.000227597 0.000550012 0.00999304 1.00007 -0.0185998 -0.000493677 0.0003408
             0.0011738 0.00372246 0.00055376 0.00221787 -9.57914e-05 6.8494e-05 0.954602 -0.243217
1.232e+08    0.988246 -0.087437 0.0137496 0.0578512 -7.01115e-05 9.22815e-06 0.00262237 0.00271509
             0.0137597 0.0578449 0.983228 -0.108245 -0.00264881 0.0125826 0.00309086 0.000645712
             -0.000378791 0.000231185 0.000566822 0.0101092 1.00006 -0.0188203 -0.000490846 0.000343967
             0.00120009 0.00376064 0.000568998 0.00224005 -9.54992e-05 6.92289e-05 0.953174 -0.245744
1.2465e+08   0.987951 -0.088422 0.0140577 0.0584839 -7.77213e-05 1.11714e-05 0.00263911 0.00274394
             0.014068 0.0584773 0.982826 -0.109453 -0.00260801 0.0127198 0.00309175 0.000653598
             -0.000384034 0.000234806 0.000583802 0.0102252 1.00006 -0.0190407 -0.000487994 0.000347106
             0.00122663 0.00379861 0.000584364 0.00226209 -9.52047e-05 6.99612e-05 0.951734 -0.24826
1.261e+08    0.987653 -0.0894055 0.0143692 0.0591149 -8.54054e-05 1.31764e-05 0.00265601 0.00277268
             0.0143796 0.0591082 0.982419 -0.110658 -0.00256686 0.0128567 0.00309265 0.000661491
             -0.000389338 0.000238461 0.000600952 0.0103411 1.00005 -0.0192611 -0.000485121 0.000350216
             0.00125341 0.00383638 0.000599855 0.00228399 -9.49078e-05 7.06908e-05 0.950281 -0.250763
1.2755e+08   0.987352 -0.0903875 0.0146838 0.0597442 -9.31632e-05 1.52436e-05 0.00267309 0.00280131
             0.0146945 0.0597374 0.982008 -0.111861 -0.00252538 0.0129931 0.00309357 0.000669394
             -0.000394702 0.000242149 0.000618271 0.0104569 1.00004 -0.0194815 -0.000482226 0.000353296
             0.00128043 0.00387394 0.00061547 0.00230576 -9.46086e-05 7.14177e-05 0.948815 -0.253254
1.29e+08     0.987048 -0.091368 0.0150018 0.0603719 -0.000100994 1.73736e-05 0.00269034 0.00282984
             0.0150126 0.0603649 0.981593 -0.113062 -0.00248356 0.0131293 0.00309451 0.000677306
             -0.000400127 0.000245871 0.000635758 0.0105726 1.00003 -0.0197018 -0.00047931 0.000356348
             0.00130769 0.0039113 0.000631207 0.00232739 -9.43072e-05 7.2142e-05 0.947338 -0.255733
1.3045e+08   0.98674 -0.092347 0.0153229 0.0609979 -0.000108898 1.95669e-05 0.00270775 0.00285827
             0.015334 0.0609908 0.981174 -0.114261 -0.0024414 0.0132651 0.00309547 0.000685226
             -0.000405612 0.000249629 0.000653412 0.0106883 1.00002 -0.0199221 -0.000476374 0.000359371
             0.00133518 0.00394844 0.000647064 0.00234888 -9.40035e-05 7.28636e-05 0.945848 -0.2582
1.319e+08    0.98643 -0.0933245 0.0156473 0.0616222 -0.000116874 2.18242e-05 0.00272533 0.00288659
             0.0156586 0.0616149 0.980751 -0.115457 -0.00239892 0.0134005 0.00309644 0.000693155
             -0.000411158 0.000253421 0.000671233 0.0108038 1.00002 -0.0201424 -0.000473418 0.000362364
             0.00136291 0.00398538 0.00066304 0.00237024 -9.36975e-05 7.35825e-05 0.944346 -0.260654
1.3335e+08   0.986117 -0.0943004 0.0159749 0.0622448 -0.000124922 2.41459e-05 0.00274307 0.0029148
             0.0159864 0.0622373 0.980324 -0.116651 -0.00235611 0.0135355 0.00309743 0.000701093
             -0.000416764 0.000257249 0.000689218 0.0109192 1.00001 -0.0203626 -0.000470442 0.000365327
             0.00139088 0.00402211 0.000679134 0.00239145 -9.33895e-05 7.42987e-05 0.942833 -0.263095
1.348e+08    0.9858 -0.0952748 0.0163058 0.0628657 -0.000133042 2.65326e-05 0.00276098 0.0029429
             0.0163174 0.062858 0.979892 -0.117842 -0.00231298 0.0136702 0.00309844 0.00070904
             -0.000422431 0.000261114 0.000707368 0.0110345 1 -0.0205828 -0.000467447 0.000368261
             0.00141907 0.00405863 0.000695343 0.00241252 -9.30792e-05 7.50121e-05 0.941307 -0.265525
1.3625e+08   0.985481 -0.0962477 0.0166398 0.0634848 -0.000141232 2.89849e-05 0.00277905 0.0029709
             0.0166516 0.063477 0.979457 -0.119032 -0.00226954 0.0138046 0.00309947 0.000716996
             -0.000428157 0.000265015 0.000725682 0.0111497 0.999991 -0.0208029 -0.000464432 0.000371165
             0.00144749 0.00409494 0.000711666 0.00243345 -9.27669e-05 7.57228e-05 0.93977 -0.267941
1.377e+08    0.985158 -0.0972189 0.016977 0.0641022 -0.000149492 3.15032e-05 0.00279728 0.00299878
             0.016989 0.0640942 0.979017 -0.120219 -0.00222578 0.0139386 0.00310052 0.000724961
             -0.000433944 0.000268953 0.000744158 0.0112649 0.999983 -0.021023 -0.000461399 0.000374039
             0.00147614 0.00413103 0.000728101 0.00245425 -9.24525e-05 7.64307e-05 0.938222 -0.270345
1.3915e+08   0.984833 -0.0981886 0.0173173 0.0647178 -0.000157823 3.40882e-05 0.00281568 0.00302656
             0.0173296 0.0647096 0.978573 -0.121403 -0.00218171 0.0140722 0.00310158 0.000732935
             -0.000439791 0.000272929 0.000762795 0.0113799 0.999975 -0.0212431 -0.000458348 0.000376883
             0.00150502 0.00416691 0.000744647 0.00247489 -9.2136e-05 7.71359e-05 0.936662 -0.272736
1.406e+08    0.984504 -0.0991567 0.0176609 0.0653316 -0.000166222 3.67403e-05 0.00283423 0.00305422
             0.0176733 0.0653232 0.978126 -0.122585 -0.00213733 0.0142054 0.00310266 0.000740918
             -0.000445698 0.000276943 0.000781594 0.0114948 0.999966 -0.0214632 -0.000455278 0.000379697
             0.00153411 0.00420257 0.000761302 0.0024954 -9.18176e-05 7.78382e-05 0.935092 -0.275115
1.4205e+08   0.984173 -0.100123 0.0180075 0.0659435 -0.000174691 3.94601e-05 0.00285295 0.00308177
             0.0180202 0.065935 0.977674 -0.123765 -0.00209266 0.0143383 0.00310376 0.00074891
             -0.000451665 0.000280995 0.000800552 0.0116096 0.999958 -0.0216832 -0.000452191 0.00038248
             0.00156343 0.00423801 0.000778065 0.00251576 -9.14971e-05 7.85378e-05 0.93351 -0.27748
1.435e+08    0.983839 -0.101088 0.0183574 0.0665537 -0.000183228 4.2248e-05 0.00287182 0.00310921
             0.0183702 0.066545 0.977218 -0.124942 -0.00204769 0.0144708 0.00310489 0.000756911
             -0.000457691 0.000285087 0.000819669 0.0117243 0.999949 -0.0219031 -0.000449087 0.000385233
             0.00159296 0.00427323 0.000794933 0.00253598 -9.11748e-05 7.92345e-05 0.931917 -0.279833
1.4495e+08   0.983501 -0.102051 0.0187103 0.0671621 -0.000191832 4.51047e-05 0.00289086 0.00313654
             0.0187234 0.0671531 0.976759 -0.126116 -0.00200243 0.014603 0.00310603 0.000764921
             -0.000463777 0.000289219 0.000838944 0.0118389 0.99994 -0.0221231 -0.000445966 0.000387956
             0.00162271 0.00430823 0.000811905 0.00255605 -9.08505e-05 7.99284e-05 0.930313 -0.282172
1.464e+08    0.983161 -0.103013 0.0190664 0.0677686 -0.000200504 4.80305e-05 0.00291005 0.00316375
             0.0190797 0.0677594 0.976295 -0.127289 -0.00195688 0.0147347 0.00310719 0.00077294
             -0.000469923 0.00029339 0.000858375 0.0119534 0.999931 -0.022343 -0.000442829 0.000390648
             0.00165268 0.00434301 0.00082898 0.00257598 -9.05244e-05 8.06195e-05 0.928699 -0.284499
1.4785e+08   0.982818 -0.103973 0.0194255 0.0683732 -0.000209243 5.10261e-05 0.00292939 0.00319084
             0.019439 0.0683639 0.975828 -0.128458 -0.00191104 0.0148661 0.00310836 0.000780968
             -0.000476128 0.000297602 0.000877963 0.0120677 0.999923 -0.0225629 -0.000439675 0.000393309
             0.00168285 0.00437757 0.000846155 0.00259577 -9.01965e-05 8.13077e-05 0.927074 -0.286812
1.493e+08    0.982472 -0.104931 0.0197878 0.0689759 -0.000218047 5.40919e-05 0.0029489 0.00321782
             0.0198015 0.0689664 0.975356 -0.129625 -0.00186493 0.0149971 0.00310956 0.000789005
             -0.000482392 0.000301855 0.000897706 0.012182 0.999914 -0.0227827 -0.000436506 0.000395939
             0.00171324 0.00441191 0.00086343 0.0026154 -8.98668e-05 8.19931e-05 0.925439 -0.289113
1.5075e+08   0.982123 -0.105888 0.0201531 0.0695768 -0.000226918 5.72283e-05 0.00296855 0.00324469
             0.020167 0.0695671 0.974881 -0.13079 -0.00181853 0.0151277 0.00311078 0.000797051
             -0.000488715 0.00030615 0.000917603 0.0122962 0.999905 -0.0230025 -0.000433321 0.000398538
             0.00174383 0.00444602 0.000880802 0.0026349 -8.95353e-05 8.26756e-05 0.923794 -0.2914
1.522e+08    0.981771 -0.106843 0.0205215 0.0701758 -0.000235854 6.0436e-05 0.00298837 0.00327143
             0.0205356 0.0701659 0.974402 -0.131952 -0.00177187 0.015258 0.00311202 0.000805106
             -0.000495098 0.000310487 0.000937653 0.0124102 0.999896 -0.0232222 -0.000430121 0.000401107
             0.00177463 0.00447991 0.00089827 0.00265424 -8.92021e-05 8.33552e-05 0.922138 -0.293674
1.5365e+08   0.981416 -0.107796 0.0208929 0.0707728 -0.000244854 6.37154e-05 0.00300833 0.00329806
             0.0209073 0.0707627 0.973919 -0.133111 -0.00172494 0.0153879 0.00311328 0.000813171
             -0.000501539 0.000314866 0.000957856 0.0125242 0.999886 -0.023442 -0.000426907 0.000403644
             0.00180563 0.00451357 0.000915832 0.00267344 -8.88672e-05 8.40319e-05 0.920473 -0.295934
1.551e+08    0.981058 -0.108748 0.0212674 0.0713679 -0.000253918 6.70669e-05 0.00302845 0.00332457
             0.021282 0.0713576 0.973432 -0.134268 -0.00167775 0.0155174 0.00311456 0.000821244
             -0.00050804 0.000319289 0.00097821 0.012638 0.999877 -0.0236616 -0.000423678 0.00040615
             0.00183683 0.004547 0.000933487 0.00269249 -8.85306e-05 8.47057e-05 0.918797 -0.298182
1.5655e+08   0.980698 -0.109697 0.0216449 0.0719611 -0.000263047 7.0491e-05 0.00304871 0.00335096
             0.0216597 0.0719505 0.972941 -0.135422 -0.00163029 0.0156465 0.00311587 0.000829326
             -0.000514598 0.000323755 0.000998714 0.0127517 0.999868 -0.0238813 -0.000420435 0.000408625
             0.00186823 0.0045802 0.000951233 0.0027114 -8.81925e-05 8.53766e-05 0.917112 -0.300415
1.58e+08     0.980335 -0.110646 0.0220255 0.0725523 -0.000272238 7.39883e-05 0.00306913 0.00337723
             0.0220405 0.0725415 0.972446 -0.136574 -0.00158258 0.0157752 0.00311719 0.000837418
             -0.000521216 0.000328265 0.00101937 0.0128653 0.999859 -0.0241009 -0.000417179 0.000411069
             0.00189983 0.00461318 0.000969068 0.00273015 -8.78527e-05 8.60446e-05 0.915418 -0.302636
1.5945e+08   0.979968 -0.111592 0.022409 0.0731415 -0.000281491 7.75592e-05 0.0030897 0.00340338
             0.0224242 0.0731305 0.971948 -0.137722 -0.00153462 0.0159036 0.00311853 0.000845518
             -0.000527891 0.00033282 0.00104017 0.0129788 0.999849 -0.0243205 -0.00041391 0.000413481
             0.00193162 0.00464593 0.00098699 0.00274876 -8.75114e-05 8.67097e-05 0.913714 -0.304843
1.609e+08    0.979599 -0.112536 0.0227955 0.0737287 -0.000290807 8.1204e-05 0.00311042 0.00342941
             0.022811 0.0737176 0.971446 -0.138869 -0.00148642 0.0160315 0.0031199 0.000853628
             -0.000534625 0.00033742 0.00106112 0.0130922 0.99984 -0.02454 -0.000410627 0.000415862
             0.0019636 0.00467844 0.001005 0.00276722 -8.71687e-05 8.73718e-05 0.912 -0.307036
1.6235e+08   0.979228 -0.113479 0.023185 0.074314 -0.000300184 8.49234e-05 0.00313128 0.00345532
             0.0232007 0.0743026 0.97094 -0.140012 -0.00143797 0.0161591 0.00312129 0.000861746
             -0.000541417 0.000342066 0.00108221 0.0132055 0.99983 -0.0247595 -0.000407333 0.000418211
             0.00199577 0.00471072 0.00102309 0.00278554 -8.68244e-05 8.8031e-05 0.910278 -0.309216
1.638e+08    0.978853 -0.11442 0.0235775 0.0748972 -0.000309622 8.87178e-05 0.00315229 0.00348111
             0.0235934 0.0748856 0.97043 -0.141153 -0.00138928 0.0162863 0.0031227 0.000869874
             -0.000548267 0.000346758 0.00110346 0.0133187 0.99982 -0.024979 -0.000404026 0.000420529
             0.00202814 0.00474278 0.00104127 0.0028037 -8.64787e-05 8.86872e-05 0.908546 -0.311383
1.6525e+08   0.978476 -0.11536 0.0239729 0.0754784 -0.00031912 9.25875e-05 0.00317345 0.00350677
             0.023989 0.0754665 0.969917 -0.142291 -0.00134036 0.0164131 0.00312413 0.000878011
             -0.000555175 0.000351496 0.00112484 0.0134317 0.999811 -0.0251984 -0.000400707 0.000422815
             0.00206069 0.00477459 0.00105953 0.00282171 -8.61316e-05 8.93405e-05 0.906806 -0.313535
1.667e+08    0.978096 -0.116297 0.0243713 0.0760575 -0.000328678 9.65331e-05 0.00319475 0.00353231
             0.0243876 0.0760455 0.9694 -0.143426 -0.0012912 0.0165395 0.00312558 0.000886156
             -0.00056214 0.000356282 0.00114637 0.0135446 0.999801 -0.0254178 -0.000397377 0.00042507
             0.00209342 0.00480618 0.00107786 0.00283958 -8.57831e-05 8.99908e-05 0.905057 -0.315674
1.6815e+08   0.977713 -0.117233 0.0247726 0.0766346 -0.000338296 0.000100555 0.00321619 0.00355772
             0.0247892 0.0766223 0.968879 -0.144559 -0.00124182 0.0166655 0.00312706 0.000894311
             -0.000569162 0.000361115 0.00116805 0.0136575 0.999791 -0.0256371 -0.000394036 0.000427293
             0.00212633 0.00483753 0.00109628 0.0028573 -8.54333e-05 9.06381e-05 0.903299 -0.3178
1.696e+08    0.977327 -0.118167 0.0251768 0.0772097 -0.000347972 0.000104654 0.00323778 0.00358301
             0.0251936 0.0771971 0.968355 -0.145689 -0.00119222 0.0167911 0.00312856 0.000902474
             -0.000576242 0.000365997 0.00118986 0.0137702 0.999781 -0.0258564 -0.000390684 0.000429484
             0.00215942 0.00486864 0.00111477 0.00287486 -8.50822e-05 9.12825e-05 0.901533 -0.319911
1.7105e+08   0.976939 -0.119099 0.025584 0.0777826 -0.000357706 0.000108829 0.00325951 0.00360817
             0.0256009 0.0777698 0.967827 -0.146816 -0.0011424 0.0169164 0.00313008 0.000910646
             -0.000583379 0.000370927 0.00121181 0.0138828 0.999771 -0.0260757 -0.000387322 0.000431643
