# Hz S RI R 50
1e+08        0.985582 -0.073853 0.0165381 0.0596917 -0.000153518 8.91227e-05 -0.000161112 0.00455466
             0.0164851 0.0599626 0.980264 -0.0908602 0.000286158 0.00467494 0.00132932 0.00469264
             -0.000154104 8.08258e-05 0.000275412 0.00463487 0.99989 -0.00955528 -2.72765e-05 2.46615e-05
             -0.000407845 0.00476427 0.00110206 0.00474939 -1.10507e-05 2.14808e-05 0.986107 -0.150111
1.0145e+08   0.98545 -0.0749155 0.0175172 0.0601693 -0.000150179 8.88062e-05 -0.000347587 0.00459245
             0.0173702 0.0598808 0.978884 -0.0917488 0.000318882 0.00472072 0.00128159 0.00470968
             -0.00015472 8.02576e-05 0.000283674 0.0047003 0.999859 -0.00967317 -3.87267e-09 3.64642e-05
             -0.000133706 0.00448557 0.00150242 0.00473691 -1.16818e-05 2.26251e-05 0.986599 -0.152001
1.029e+08    0.984796 -0.0758051 0.0174222 0.0610801 -0.000151448 8.38724e-05 -0.000304309 0.00484318
             0.0174659 0.0614954 0.979207 -0.0930353 0.000327932 0.00475403 0.00131722 0.00486063
             -0.000162264 8.55967e-05 0.000289351 0.00476599 0.999852 -0.00977534 -2.78144e-06 7.0242e-06
             -0.000400452 0.0049284 0.00116661 0.0047841 -1.16501e-05 2.37804e-05 0.986119 -0.15502
1.0435e+08   0.984647 -0.07689 0.0184797 0.0617934 -0.000159213 7.92907e-05 -0.000179232 0.00478972
             0.0182525 0.0613618 0.977772 -0.0942969 0.000312346 0.00479677 0.0014344 0.00487485
             -0.000163475 8.50028e-05 0.000297732 0.00483177 0.999874 -0.00988586 -2.83491e-05 2.36225e-05
             -0.000170727 0.00462022 0.00156183 0.00493464 -1.1181e-05 2.44483e-05 0.985078 -0.156648
1.058e+08    0.983994 -0.0777435 0.0183815 0.0624434 -0.000171097 7.97047e-05 -0.000360049 0.00480743
             0.0184699 0.0630042 0.978042 -0.0951912 0.000287461 0.00486395 0.00139435 0.00488063
             -0.000170611 9.0757e-05 0.000303582 0.00489678 0.999908 -0.0100226 -2.82918e-06 3.88228e-05
             -0.000391212 0.005091 0.00126825 0.00482331 -1.07887e-05 2.44692e-05 0.985514 -0.158436
1.0725e+08   0.983826 -0.0788501 0.0194077 0.0633973 -0.000182117 8.65144e-05 -0.00033807 0.00506356
             0.019154 0.0628323 0.976718 -0.0968059 0.000274502 0.00495441 0.00141903 0.00502913
             -0.000172417 9.00133e-05 0.000311884 0.00496313 0.999931 -0.0101863 -1.79325e-06 9.46518e-06
             -0.000209104 0.00475875 0.00158859 0.00511795 -1.0934e-05 2.41149e-05 0.985128 -0.16146
1.087e+08    0.983175 -0.0796684 0.0194134 0.0638045 -0.000187826 9.6993e-05 -0.00019871 0.00502779
             0.0194961 0.064488 0.976778 -0.0973627 0.000287071 0.00505165 0.00154183 0.00505349
             -0.000178994 9.62321e-05 0.000318406 0.00502746 0.999927 -0.0103598 -2.91042e-05 2.26699e-05
             -0.000380648 0.00525174 0.00140069 0.00488148 -1.17268e-05 2.3915e-05 0.984015 -0.163179
1.1015e+08   0.982984 -0.0807951 0.0203068 0.0649574 -0.000187247 0.000105916 -0.000371417 0.00502624
             0.0200747 0.0642918 0.975708 -0.0992413 0.000321891 0.00513417 0.0015106 0.00504896
             -0.000181408 9.50456e-05 0.000326206 0.00509398 0.999897 -0.010519 -5.74416e-06 4.09557e-05
             -0.000248641 0.0049016 0.00159166 0.00527324 -1.28367e-05 2.4312e-05 0.984383 -0.164872
1.116e+08    0.982341 -0.0815792 0.020506 0.0651833 -0.000183723 0.000109039 -0.00037108 0.00528524
             0.0205423 0.0659465 0.975438 -0.0995771 0.000360311 0.00519016 0.00152458 0.00519346
             -0.000187809 0.00010188 0.00033348 0.00515819 0.99986 -0.0106494 -9.86008e-07 1.21329e-05
             -0.000368782 0.00541074 0.00155227 0.00496883 -1.37027e-05 2.5345e-05 0.984089 -0.167887
1.1305e+08   0.982125 -0.0827251 0.0211926 0.0664549 -0.000182671 0.000106125 -0.000219528 0.0052688
             0.0210152 0.065741 0.974713 -0.101579 0.000381192 0.00522614 0.00165138 0.00522844
             -0.000190411 0.000100635 0.000341029 0.00522451 0.999841 -0.010756 -2.96213e-05 2.17758e-05
             -0.000288746 0.00504844 0.00158486 0.00539224 -1.39296e-05 2.66085e-05 0.982918 -0.169702
1.145e+08    0.981492 -0.0834763 0.0216403 0.066593 -0.00018778 0.000101072 -0.000381701 0.00524914
             0.021608 0.0673795 0.974056 -0.101849 0.000375811 0.00526215 0.00163006 0.00521477
             -0.000196419 0.000107437 0.00034889 0.00528861 0.999851 -0.0108603 -8.79129e-06 4.28848e-05
             -0.000356503 0.00556779 0.00170819 0.00509 -1.3569e-05 2.75435e-05 0.983206 -0.171308
1.1595e+08   0.981247 -0.0846393 0.0220869 0.0678797 -0.000198599 9.91336e-05 -0.000402958 0.00550843
             0.0219757 0.0671789 0.973697 -0.10381 0.000353237 0.00531763 0.0016339 0.00535375
             -0.000199828 0.000106098 0.000356142 0.00535464 0.999882 -0.0109845 -3.70843e-07 1.50887e-05
             -0.000329015 0.0052 0.00158461 0.00547367 -1.30684e-05 2.78255e-05 0.983004 -0.174301
1.174e+08    0.980628 -0.0853599 0.0227932 0.068038 -0.000211 0.000103484 -0.000241476 0.00551257
             0.0226915 0.0687869 0.972667 -0.10418 0.000333661 0.0053988 0.0017631 0.00539953
             -0.000205543 0.000113279 0.000364482 0.0054188 0.999913 -0.0111375 -2.97916e-05 2.09908e-05
             -0.000343533 0.00572273 0.00185321 0.00524263 -1.29624e-05 2.75685e-05 0.981786 -0.176216
1.1885e+08   0.980351 -0.0865374 0.0230133 0.0692324 -0.000219844 0.000113248 -0.000390919 0.00547617
             0.022957 0.068605 0.972624 -0.105943 0.000335324 0.00549503 0.0017526 0.00537789
             -0.000209496 0.000112144 0.000371442 0.00548452 0.999921 -0.0113093 -1.18477e-05 4.44626e-05
             -0.000369241 0.00535573 0.00160561 0.00552342 -1.35268e-05 2.7246e-05 0.981985 -0.177745
1.203e+08    0.979749 -0.0872296 0.0239418 0.0695131 -0.000222275 0.000123979 -0.000433499 0.00573321
             0.0237914 0.0701688 0.971304 -0.106554 0.000362623 0.0055854 0.00174695 0.00550985
             -0.000214516 0.000119554 0.000380384 0.00554908 0.999901 -0.0114772 -7.39938e-08 1.81087e-05
             -0.000330693 0.0058758 0.00197424 0.00541858 -1.45909e-05 2.73869e-05 0.98187 -0.180702
1.2175e+08   0.979437 -0.0884193 0.0239926 0.0705237 -0.000219747 0.000130502 -0.000264481 0.005759
             0.0239594 0.070019 0.971467 -0.107999 0.000402568 0.0056525 0.00187678 0.00556641
             -0.000218995 0.000118215 0.000387488 0.00561398 0.999864 -0.0116208 -2.99012e-05 2.03314e-05
             -0.000408877 0.00551597 0.00165877 0.00555331 -1.56343e-05 2.82143e-05 0.980619 -0.182721
1.232e+08    0.978855 -0.0890852 0.0250673 0.071004 -0.000217168 0.000130502 -0.000399129 0.00570747
             0.0249064 0.071525 0.969992 -0.108945 0.00043334 0.00569483 0.00187776 0.00553827
             -0.000223744 0.000125694 0.000396403 0.00567875 0.999835 -0.011736 -1.50699e-05 4.59349e-05
             -0.000318038 0.00602702 0.00206299 0.00560456 -1.61446e-05 2.94741e-05 0.980721 -0.184181
1.2465e+08   0.978507 -0.0902841 0.025039 0.071772 -0.000219477 0.000126171 -0.000462449 0.00595977
             0.024983 0.0714202 0.970209 -0.110011 0.000439669 0.00572786 0.00186354 0.00566202
             -0.000228906 0.0001245 0.000403667 0.00574318 0.999832 -0.0118386 -1.17599e-08 2.14888e-05
             -0.000447461 0.0056804 0.00174854 0.00557838 -1.59839e-05 3.06122e-05 0.980687 -0.187092
1.261e+08    0.977947 -0.0909272 0.026158 0.0724894 -0.000228268 0.000122591 -0.000288398 0.00600795
             0.0260356 0.072856 0.968741 -0.111318 0.000423147 0.00577293 0.00199246 0.0057291
             -0.0002333 0.000132213 0.000412514 0.00580821 0.999855 -0.0119521 -2.96352e-05 1.99388e-05
             -0.000306198 0.00617634 0.0021175 0.005785 -1.54775e-05 3.1168e-05 0.979417 -0.189215
1.2755e+08   0.977561 -0.0921319 0.0261567 0.073 -0.000240881 0.000124287 -0.00040637 0.00594318
             0.0260284 0.0728078 0.96885 -0.112014 0.000400451 0.00584289 0.00200545 0.00569585
             -0.000238861 0.000131305 0.000420184 0.00587227 0.999888 -0.0120924 -1.8148e-05 4.7106e-05
             -0.000484834 0.00584917 0.0018725 0.00561401 -1.5179e-05 3.10792e-05 0.979414 -0.190618
1.29e+08     0.977024 -0.0927552 0.0272125 0.0739456 -0.000252206 0.000132359 -0.000489524 0.00618829
             0.0271773 0.074162 0.967547 -0.113637 0.000392166 0.0059341 0.00198367 0.00581016
             -0.000242753 0.000138918 0.00042892 0.00593735 0.999908 -0.0122579 -2.00707e-07 2.48818e-05
             -0.000295295 0.00632418 0.00214285 0.00594498 -1.55049e-05 3.07138e-05 0.979456 -0.19347
1.3045e+08   0.976599 -0.0939622 0.0273406 0.07423 -0.000257947 0.000143763 -0.00031303 0.00625923
             0.0270955 0.0741813 0.967405 -0.11404 0.000409538 0.00602878 0.00211005 0.0058873
             -0.000248907 0.000138217 0.000437002 0.00600112 0.999899 -0.0124301 -2.92517e-05 1.9695e-05
             -0.000520389 0.00602204 0.00202209 0.00567296 -1.64611e-05 3.06333e-05 0.978179 -0.195696
1.319e+08    0.976088 -0.0945694 0.0282395 0.0753505 -0.000257485 0.000153186 -0.000412745 0.0061833
             0.0283308 0.0754438 0.966388 -0.115873 0.000446699 0.00610645 0.0021353 0.00585044
             -0.00025242 0.000145808 0.000445526 0.00606614 0.999867 -0.0125858 -2.12552e-05 4.80972e-05
             -0.000285691 0.00647059 0.00215016 0.00607319 -1.76237e-05 3.12203e-05 0.978066 -0.197054
1.3335e+08   0.975621 -0.0957749 0.0285765 0.0754801 -0.000254455 0.000156612 -0.000514581 0.00641897
             0.0281849 0.0755395 0.965902 -0.116111 0.00048412 0.00615796 0.00210704 0.00595438
             -0.000259007 0.000145477 0.000454051 0.00612982 0.999832 -0.0127126 -6.32553e-07 2.84552e-05
             -0.000553838 0.00619886 0.00218425 0.00576306 -1.84179e-05 3.24024e-05 0.978175 -0.199838
1.348e+08    0.975137 -0.0963695 0.0292565 0.0766881 -0.000254284 0.000154162 -0.000338209 0.0065128
             0.029495 0.0767014 0.965235 -0.118006 0.000502156 0.00619219 0.00222942 0.006041
             -0.00026205 0.000152752 0.000462411 0.00619462 0.999816 -0.0128182 -2.86052e-05 1.96705e-05
             -0.000277618 0.00661582 0.00215434 0.00616435 -1.85255e-05 3.36934e-05 0.976906 -0.202165
1.3625e+08   0.974629 -0.0975696 0.0298442 0.0767611 -0.000260412 0.00014996 -0.000418265 0.00642796
             0.0292962 0.0768818 0.964372 -0.118238 0.00049471 0.00622955 0.00226706 0.00600209
             -0.000269378 0.00015274 0.000471285 0.00625837 0.999829 -0.0129244 -2.4266e-05 4.8789e-05
             -0.00058485 0.0063794 0.00234382 0.005886 -1.8107e-05 3.45398e-05 0.976677 -0.20349
1.377e+08    0.974173 -0.0981556 0.0302858 0.0779514 -0.000272068 0.000149248 -0.000537331 0.00665202
             0.030669 0.0779359 0.964051 -0.120035 0.000472835 0.00628784 0.00223363 0.00609483
             -0.000272108 0.000159993 0.000479715 0.00632288 0.99986 -0.0130522 -1.38022e-06 3.20495e-05
             -0.000271252 0.00676011 0.00217105 0.00622037 -1.76785e-05 3.47001e-05 0.976844 -0.206196
1.3915e+08   0.973623 -0.0993461 0.0311203 0.0780746 -0.0002849 0.00015496 -0.000363652 0.00676849
             0.0304297 0.0782071 0.962852 -0.120415 0.000456923 0.00637078 0.00235063 0.00619011
             -0.000279877 0.000160558 0.000488883 0.00638655 0.999888 -0.0132079 -2.78385e-05 1.98745e-05
             -0.000613167 0.00656323 0.00248649 0.00603691 -1.77608e-05 3.43963e-05 0.975595 -0.208619
1.406e+08    0.973195 -0.0999277 0.0313503 0.0791441 -0.00029379 0.000165874 -0.000422977 0.0066771
             0.031852 0.0791477 0.962805 -0.121972 0.000463465 0.00646582 0.00240058 0.00615064
             -0.000282004 0.000167554 0.000497219 0.0064507 0.999892 -0.0133797 -2.72224e-05 4.92399e-05
             -0.000267104 0.00690382 0.00221348 0.00624964 -1.85391e-05 3.41668e-05 0.975249 -0.209925
1.4205e+08   0.972603 -0.101104 0.032383 0.0794125 -0.000296177 0.000177322 -0.000557637 0.00688758
             0.0315852 0.0795144 0.96137 -0.122624 0.000494167 0.00655205 0.0023633 0.00623152
             -0.000290341 0.000168351 0.000506591 0.00651453 0.999869 -0.0135447 -2.4973e-06 3.56936e-05
             -0.000638496 0.00675042 0.0026012 0.00620523 -1.97304e-05 3.45161e-05 0.975464 -0.212544
1.435e+08    0.972204 -0.101685 0.0324688 0.0802796 -0.00029388 0.000184222 -0.000389209 0.00702618
             0.0330433 0.0803374 0.961474 -0.123844 0.000534302 0.00661425 0.00247365 0.00633447
             -0.000292283 0.000175239 0.000515058 0.00657821 0.999832 -0.0136843 -2.69996e-05 2.0432e-05
             -0.000264978 0.00704728 0.0022896 0.00626543 -2.07588e-05 3.55644e-05 0.974246 -0.215059
1.4495e+08   0.971571 -0.102844 0.0336156 0.0807585 -0.000291962 0.000184598 -0.00042698 0.00693082
             0.0327623 0.080803 0.959946 -0.124835 0.00056261 0.00665359 0.00253555 0.00629594
             -0.00030094 0.000176588 0.000524332 0.00664223 0.999806 -0.0137973 -3.0023e-05 4.95697e-05
             -0.000660546 0.00694037 0.00268247 0.00637686 -2.11537e-05 3.69496e-05 0.973783 -0.216358
1.464e+08    0.971199 -0.103429 0.0336523 0.0813775 -0.000295211 0.000180962 -0.000575254 0.00712596
             0.0342427 0.0815058 0.960046 -0.125683 0.000566176 0.00668682 0.00249577 0.00636451
             -0.000302585 0.000183171 0.000533259 0.00670571 0.999806 -0.0139006 -3.86831e-06 3.9366e-05
             -0.000265202 0.00719074 0.0024011 0.00628289 -2.08832e-05 3.80802e-05 0.974034 -0.218884
1.4785e+08   0.970526 -0.104566 0.0348095 0.0820907 -0.000304901 0.000178501 -0.000414456 0.00728578
             0.0339605 0.0820713 0.958584 -0.127013 0.000549017 0.0067344 0.00259833 0.00647409
             -0.000311587 0.000185051 0.000542527 0.00676945 0.999831 -0.0140173 -2.60664e-05 2.13165e-05
             -0.000679283 0.00713284 0.00273141 0.00653634 -2.03682e-05 3.85473e-05 0.972859 -0.221483
1.493e+08    0.970181 -0.105158 0.0349026 0.0824606 -0.00031807 0.000181588 -0.000430231 0.00718893
             0.0354492 0.082654 0.958529 -0.127523 0.000528806 0.00680685 0.00267174 0.00643801
             -0.000313016 0.000191269 0.000551543 0.00683273 0.999863 -0.0141611 -3.2606e-05 4.9798e-05
             -0.000267845 0.0073348 0.00254277 0.00631631 -2.01882e-05 3.83926e-05 0.972278 -0.222788
1.5075e+08   0.96947 -0.106269 0.0359667 0.0833857 -0.00032951 0.000190989 -0.000590106 0.0073672
             0.03518 0.0833187 0.957274 -0.129126 0.000525122 0.00689822 0.00263099 0.00649401
             -0.000322427 0.000193808 0.000560748 0.00689644 0.999879 -0.014328 -5.37955e-06 4.3007e-05
             -0.000694227 0.00732752 0.00275572 0.00667047 -2.07006e-05 3.80736e-05 0.972554 -0.225216
1.522e+08    0.96915 -0.106872 0.0362116 0.08355 -0.000335112 0.000203346 -0.000439277 0.00754715
             0.0366624 0.083782 0.95694 -0.129392 0.000546732 0.00698986 0.00272483 0.00660889
             -0.000323469 0.000199825 0.000570047 0.00695965 0.999866 -0.0144985 -2.49936e-05 2.23626e-05
             -0.000272902 0.00747943 0.00270417 0.00637633 -2.18029e-05 3.81672e-05 0.971432 -0.227891
1.5365e+08   0.968403 -0.107953 0.0370983 0.0846232 -0.000334637 0.000213286 -0.000432863 0.00745147
             0.0364194 0.0845444 0.955992 -0.131147 0.000585439 0.00706264 0.00280899 0.00657656
             -0.000333002 0.000202685 0.000579231 0.00702317 0.999833 -0.0146503 -3.50861e-05 4.97315e-05
             -0.000705646 0.00752404 0.0027681 0.00677061 -2.2988e-05 3.89824e-05 0.970737 -0.229214
1.551e+08    0.968105 -0.108571 0.0375634 0.0846618 -0.000332003 0.000217053 -0.000602063 0.00761158
             0.0378825 0.0848912 0.955308 -0.131308 0.000621278 0.00711013 0.00276861 0.00661996
             -0.000334161 0.000208244 0.00058882 0.00708641 0.9998 -0.0147739 -7.31979e-06 4.65853e-05
             -0.000280326 0.00762528 0.00287146 0.0064682 -2.36844e-05 4.0336e-05 0.971026 -0.231541
1.5655e+08   0.967325 -0.109619 0.0382234 0.0857903 -0.000332621 0.00021514 -0.000463332 0.00781026
             0.0376785 0.0857472 0.954706 -0.133066 0.00063636 0.00714321 0.00285291 0.00673895
             -0.000343987 0.000211914 0.000598136 0.00714957 0.999787 -0.0148788 -2.39857e-05 2.38401e-05
             -0.000713346 0.00772191 0.00278381 0.0068344 -2.36596e-05 4.1674e-05 0.969965 -0.234283
1.58e+08     0.967048 -0.110255 0.0389365 0.0858043 -0.000339658 0.000211898 -0.000434848 0.00771833
             0.0391092 0.0859821 0.953668 -0.133276 0.000627183 0.00718228 0.00294711 0.00671178
             -0.000344836 0.000217227 0.00060779 0.00721278 0.999803 -0.0149873 -3.73327e-05 4.96719e-05
             -0.000290207 0.00777274 0.00302961 0.00659073 -2.31788e-05 4.24635e-05 0.969159 -0.235637
1.5945e+08   0.966238 -0.111266 0.0393646 0.0868834 -0.000351995 0.000212529 -0.000610987 0.00785925
             0.0389565 0.0869262 0.953382 -0.134885 0.00060649 0.00724328 0.00290874 0.00674262
             -0.000354721 0.000221176 0.000617329 0.00727562 0.999834 -0.0151187 -9.43391e-06 5.01486e-05
             -0.000717213 0.00792088 0.00281735 0.00686673 -2.2811e-05 4.25536e-05 0.969448 -0.23786
1.609e+08    0.965978 -0.111924 0.0403083 0.086976 -0.000365064 0.000219689 -0.000486354 0.00807498
             0.0403423 0.0870555 0.952051 -0.135284 0.000594467 0.00732743 0.0029829 0.00686407
             -0.000355941 0.000226222 0.000626924 0.00733869 0.999859 -0.015277 -2.29083e-05 2.56626e-05
             -0.000302397 0.00792203 0.00316589 0.00673666 -2.30453e-05 4.22667e-05 0.968456 -0.240657
1.6235e+08   0.965141 -0.112895 0.0405434 0.0879091 -0.000373807 0.000231794 -0.00043628 0.0079894
             0.0402526 0.0880809 0.951992 -0.136622 0.000605587 0.00742058 0.00308593 0.00684313
             -0.000365573 0.000231082 0.000636692 0.0074013 0.99986 -0.0154487 -3.92781e-05 4.95436e-05
             -0.000717419 0.00812061 0.00287971 0.00687791 -2.39677e-05 4.21855e-05 0.967545 -0.242053
1.638e+08    0.964895 -0.113577 0.0416581 0.0881665 -0.000375987 0.000243974 -0.000616855 0.00811043
             0.0415822 0.0881114 0.950482 -0.137312 0.000638957 0.00750235 0.00305089 0.00686186
             -0.000366733 0.00023532 0.000646108 0.007464 0.999834 -0.015611 -1.16831e-05 5.36296e-05
             -0.000316701 0.00807365 0.00327152 0.00689387 -2.51936e-05 4.27665e-05 0.967822 -0.244173
1.6525e+08   0.964036 -0.114506 0.0417763 0.0888828 -0.000373794 0.000251272 -0.000508043 0.00834135
             0.0415655 0.0892101 0.950517 -0.138305 0.000678517 0.00755983 0.00311455 0.00698433
             -0.000376783 0.000240866 0.000655557 0.00752664 0.999797 -0.0157474 -2.16967e-05 2.77989e-05
             -0.000713876 0.00832061 0.00297618 0.00688211 -2.61167e-05 4.40184e-05 0.966906 -0.247015
1.667e+08    0.9638 -0.115215 0.0429719 0.0893575 -0.000372425 0.000252072 -0.000437118 0.00826459
             0.0428287 0.0891512 0.948976 -0.139328 0.000703959 0.00759673 0.00322519 0.0069706
             -0.000377846 0.000245041 0.000664979 0.00758994 0.999774 -0.015859 -4.07575e-05 4.91993e-05
             -0.000333088 0.00822776 0.00334398 0.00704757 -2.63327e-05 4.54824e-05 0.965897 -0.248464
1.6815e+08   0.962922 -0.116099 0.0430716 0.0898252 -0.000376492 0.000249211 -0.000619551 0.00836529
             0.0428946 0.0903135 0.948954 -0.139967 0.000704858 0.00763071 0.00319475 0.00697779
             -0.000387746 0.000250911 0.000675471 0.00765259 0.999777 -0.0159636 -1.40754e-05 5.66316e-05
             -0.000706915 0.00852076 0.00310535 0.00689404 -2.59257e-05 4.65528e-05 0.966148 -0.25048
1.696e+08    0.962694 -0.116836 0.0442443 0.0905269 -0.000386921 0.000247962 -0.00052806 0.00860932
             0.0440822 0.0901746 0.94753 -0.141299 0.000687489 0.00768098 0.00324773 0.0070999
             -0.000389219 0.000254912 0.000684914 0.00771497 0.999802 -0.0160835 -2.07761e-05 2.99457e-05
             -0.000351125 0.00838491 0.00338721 0.0071835 -2.54051e-05 4.68961e-05 0.965312 -0.253355
1.7105e+08   0.961801 -0.117674 0.044428 0.0907586 -0.000400451 0.000252509 -0.000437329 0.00854376
             0.0442383 0.0913901 0.947313 -0.14164 0.000670162 0.00775564 0.00336477 0.00709426
