# Hz S RI R 50
1e+08        0.990303 -0.0789475 0.00912579 0.0592982 -0.000114669 9.40652e-05 -0.000168856 0.00539911
             0.00959488 0.0592623 0.98941 -0.0872458 0.00021345 0.00395508 0.00163851 0.00843578
             -0.000112462 0.000103389 0.000208386 0.00399148 0.999881 -0.00883126 1.14734e-05 0.000737894
             3.04261e-05 0.00525703 0.00101685 0.00863348 4.3878e-05 0.000732181 0.989997 -0.129447
1.0145e+08   0.992896 -0.0782373 0.00984858 0.0597166 -0.000118792 9.53757e-05 8.26839e-05 0.00574664
             0.00880213 0.0593511 0.988485 -0.0880211 0.00021453 0.00401188 0.00128946 0.00802881
             -0.000128902 9.55557e-05 0.000223152 0.00404023 0.999886 -0.00895849 3.22351e-05 0.000776948
             0.000234904 0.00554975 0.00133328 0.00862788 4.38102e-05 0.000742492 0.989561 -0.131502
1.029e+08    0.989756 -0.0810784 0.00970175 0.0600984 -0.00012306 9.68135e-05 0.000411929 0.00566387
             0.0101516 0.0608938 0.988637 -0.0886323 0.000215699 0.00406934 0.000708265 0.00836152
             -0.000119011 0.000106988 0.000220403 0.00408803 0.999891 -0.00908661 6.60446e-05 0.000776783
             2.8114e-05 0.00542603 0.00124192 0.00846192 4.37068e-05 0.000752966 0.989076 -0.133243
1.0435e+08   0.992468 -0.0805935 0.00951941 0.0613438 -0.000127456 9.83925e-05 0.000351414 0.00538781
             0.00931495 0.0610643 0.988952 -0.0903105 0.000217063 0.00412745 0.000769147 0.00912225
             -0.000136122 0.000100144 0.000216718 0.0041532 0.999896 -0.00921563 6.60644e-05 0.000753237
             0.000246917 0.00570418 0.000988995 0.00869777 4.35927e-05 0.000763609 0.988875 -0.134851
1.058e+08    0.989204 -0.0832029 0.0102086 0.0626372 -0.000131964 0.000100124 -3.40438e-06 0.00542472
             0.0107204 0.0625207 0.988193 -0.0921687 0.000218725 0.00418618 0.00141938 0.00940047
             -0.00012572 0.000110366 0.000230563 0.00421956 0.9999 -0.00934553 3.42947e-05 0.00075485
             2.6433e-05 0.00559614 0.00113713 0.00910207 4.34932e-05 0.000774422 0.988877 -0.136695
1.0725e+08   0.992017 -0.0829518 0.0109478 0.0630527 -0.000136565 0.000102018 -0.000149075 0.0058352
             0.00984669 0.0627761 0.987249 -0.0929452 0.000220782 0.00424548 0.00178946 0.0089741
             -0.000143786 0.000104549 0.000245641 0.00426827 0.999904 -0.00947629 1.68373e-05 0.000794233
             0.000258679 0.00585881 0.00145616 0.00910199 4.34337e-05 0.000785403 0.988714 -0.138804
1.087e+08    0.988648 -0.0853217 0.0108163 0.0634299 -0.000141238 0.000104079 0.000127762 0.00615548
             0.0113011 0.0641424 0.987379 -0.0935502 0.000223324 0.00430531 0.0013971 0.00860678
             -0.000133184 0.000114027 0.000243238 0.00431598 0.999908 -0.00960784 4.00698e-05 0.000831166
             2.56383e-05 0.00576721 0.00137249 0.00893426 4.34391e-05 0.000796548 0.988243 -0.140836
1.1015e+08   0.991542 -0.0853116 0.0106481 0.0646722 -0.000145962 0.000106312 0.000437392 0.00604179
             0.0103968 0.0644858 0.987679 -0.0952193 0.000226432 0.00436558 0.000844303 0.00899318
             -0.000151538 0.000109708 0.000239907 0.00438105 0.999911 -0.00974012 7.25822e-05 0.000828106
             0.000270087 0.00601358 0.00112021 0.00916351 4.35333e-05 0.000807847 0.987755 -0.142551
1.116e+08    0.988086 -0.0874355 0.0113525 0.0659633 -0.000150716 0.000108717 0.000341778 0.00577632
             0.0118932 0.0657597 0.986908 -0.0970745 0.000230174 0.00442622 0.000966025 0.00974357
             -0.0001403 0.000117841 0.000254117 0.00444727 0.999914 -0.00987303 6.95562e-05 0.000805024
             2.58049e-05 0.00593928 0.00126393 0.00956787 4.37387e-05 0.000819288 0.987563 -0.144167
1.1305e+08   0.991044 -0.0876718 0.0121081 0.0663758 -0.000155478 0.00011129 -1.39335e-05 0.00585042
             0.0109657 0.0661938 0.985946 -0.0978518 0.000234607 0.00448713 0.001627 0.00996245
             -0.00015931 0.000114588 0.000269538 0.00449578 0.999916 -0.0100065 3.73508e-05 0.000809727
             0.000281114 0.00616837 0.00158534 0.00957327 4.40753e-05 0.000830853 0.987546 -0.146035
1.145e+08    0.987521 -0.089545 0.0119921 0.0667483 -0.000160228 0.000114025 -0.000124481 0.0062738
             0.0124973 0.0673725 0.986053 -0.0984504 0.00023977 0.00454822 0.00194536 0.00950899
             -0.000147805 0.000121596 0.000267399 0.00454327 0.999917 -0.0101403 2.27886e-05 0.000850555
             2.67326e-05 0.00611235 0.00150936 0.00940394 4.4561e-05 0.000842526 0.987339 -0.14815
1.1595e+08   0.990522 -0.0900321 0.0118379 0.0679872 -0.000164945 0.000116914 0.000174513 0.00656454
             0.0115533 0.0678991 0.986338 -0.10011 0.00024569 0.00460937 0.00151406 0.00918539
             -0.000167402 0.00011955 0.000264278 0.0046082 0.999917 -0.0102744 4.83252e-05 0.000885182
             0.000291833 0.00632347 0.0012579 0.00962651 4.52104e-05 0.000854283 0.986835 -0.150157
1.174e+08    0.986951 -0.091651 0.0125575 0.0692758 -0.000169612 0.000119945 0.000461508 0.00642236
             0.0131129 0.0689811 0.985555 -0.101962 0.000252373 0.00467049 0.000994669 0.0096224
             -0.000155661 0.000125631 0.000278745 0.00467433 0.999916 -0.0104087 7.93482e-05 0.000879359
             2.85689e-05 0.00628632 0.00139716 0.0100307 4.60349e-05 0.000866102 0.986348 -0.15185
1.1885e+08   0.989976 -0.0923911 0.0133297 0.0696851 -0.000174211 0.000123102 0.000332184 0.00617104
             0.0121597 0.0696013 0.984575 -0.10274 0.000259811 0.00473145 0.00117587 0.0103569
             -0.000175478 0.000124714 0.000294483 0.00472272 0.999914 -0.010543 7.33835e-05 0.000856953
             0.000302193 0.00647892 0.00172073 0.0100415 4.7042e-05 0.000877959 0.986163 -0.153475
1.203e+08    0.986377 -0.093754 0.0132291 0.0700526 -0.000178729 0.000126368 -2.06363e-05 0.00628216
             0.0137398 0.0705858 0.98466 -0.103332 0.000267978 0.00479216 0.00184203 0.010516
             -0.000163724 0.000129652 0.000292629 0.00477003 0.999912 -0.0106771 4.10122e-05 0.000864681
             3.14191e-05 0.00646113 0.00165241 0.0098708 4.82356e-05 0.000889826 0.986125 -0.155368
1.2175e+08   0.989406 -0.0947481 0.0130889 0.0712879 -0.000183154 0.000129725 -9.50914e-05 0.00671475
             0.0127852 0.0713006 0.984929 -0.104982 0.00027683 0.00485252 0.00210662 0.0100406
             -0.000183762 0.000129957 0.000289725 0.00483481 0.999908 -0.010811 2.93769e-05 0.000906612
             0.000312069 0.00663472 0.00140197 0.0100867 4.96155e-05 0.000901678 0.985873 -0.157485
1.232e+08    0.9858 -0.0958549 0.0138237 0.072574 -0.000187478 0.00013315 0.000222667 0.00697403
             0.0143786 0.0721865 0.984134 -0.10683 0.00028631 0.00491242 0.00164099 0.00976403
             -0.000172143 0.00013374 0.00030442 0.00490085 0.999904 -0.0109444 5.68645e-05 0.000938744
             3.5286e-05 0.00663691 0.00153677 0.0104905 5.11774e-05 0.000913488 0.985339 -0.159465
1.2465e+08   0.988812 -0.0971027 0.0146125 0.0729799 -0.000191696 0.000136623 0.000484277 0.00680614
             0.0134294 0.0729959 0.983136 -0.107608 0.000296346 0.00497179 0.00115934 0.010248
             -0.000192395 0.000135488 0.000320435 0.00494917 0.999899 -0.0110774 8.60642e-05 0.000930401
             0.000321691 0.0067909 0.00186229 0.0105067 5.29132e-05 0.000925233 0.984855 -0.161138
1.261e+08    0.985218 -0.0979543 0.0145275 0.0733421 -0.000195805 0.00014012 0.000323008 0.0065724
             0.0150286 0.0737837 0.983199 -0.108194 0.000306851 0.00503056 0.00139777 0.0109614
             -0.000180708 0.000138264 0.000318865 0.00499638 0.999893 -0.0112097 7.72147e-05 0.000909046
             4.01559e-05 0.0068134 0.00180157 0.0103347 5.48106e-05 0.000936888 0.984674 -0.162775
1.2755e+08   0.988194 -0.0994535 0.0144012 0.0745734 -0.000199809 0.000143618 -2.31357e-05 0.00672002
             0.0140925 0.0746874 0.983452 -0.109833 0.000317731 0.00508867 0.00206335 0.011061
             -0.000200934 0.000141226 0.000316252 0.00506109 0.999887 -0.0113412 4.49801e-05 0.000919897
             0.000330838 0.00694754 0.00155227 0.0105438 5.68543e-05 0.000948431 0.984612 -0.164692
1.29e+08     0.984631 -0.100053 0.015151 0.0758569 -0.000203712 0.000147095 -6.08829e-05 0.00715804
             0.0156903 0.0753775 0.982646 -0.111677 0.000328883 0.00514608 0.00227272 0.0105695
             -0.000189253 0.000142955 0.000331314 0.00512706 0.99988 -0.0114719 3.64123e-05 0.000962731
             4.59833e-05 0.0069907 0.00168262 0.010947 5.90254e-05 0.000959845 0.984315 -0.166808
1.3045e+08   0.987553 -0.1018 0.0159565 0.0762593 -0.000207523 0.000150529 0.000272113 0.00738429
             0.0147744 0.0763744 0.981629 -0.112456 0.000340199 0.00520277 0.001778 0.010343
             -0.000209249 0.000146763 0.000347735 0.0051752 0.999873 -0.0116018 6.56854e-05 0.000992256
             0.00033956 0.00710484 0.0020099 0.0109685 6.13027e-05 0.000971113 0.983754 -0.168761
1.319e+08    0.98404 -0.102152 0.0158871 0.0766159 -0.000211255 0.000153901 0.000505908 0.00719368
             0.0163636 0.076968 0.98167 -0.113035 0.000351567 0.00525872 0.00133841 0.0108697
             -0.000198348 0.00014722 0.000346461 0.00522213 0.999866 -0.0117308 9.29489e-05 0.000981589
             5.29716e-05 0.00716881 0.00195675 0.0107954 6.36626e-05 0.000982224 0.983274 -0.170415
1.3335e+08   0.986888 -0.104141 0.0157746 0.0778431 -0.000214923 0.000157193 0.000314765 0.00698071
             0.0154751 0.0780567 0.981908 -0.114664 0.000362879 0.00531396 0.00163158 0.0115567
             -0.000218245 0.000152726 0.000344005 0.00528664 0.999858 -0.0118589 8.14272e-05 0.000961485
             0.000347951 0.00726269 0.00170874 0.0109978 6.60799e-05 0.000993168 0.983097 -0.172066
1.348e+08    0.983445 -0.104251 0.0165394 0.0791239 -0.000218544 0.000160389 -2.10562e-05 0.0071639
             0.0170485 0.0785554 0.98109 -0.116504 0.000374029 0.00536851 0.00229088 0.0115975
             -0.000207385 0.000151971 0.000359246 0.00535256 0.999851 -0.011986 4.96545e-05 0.000975316
             6.09991e-05 0.00734761 0.00183462 0.0114003 6.85286e-05 0.00100394 0.983009 -0.174006
1.3625e+08   0.9862 -0.106477 0.0173617 0.0795227 -0.00022214 0.000163477 -2.19234e-05 0.00760357
             0.0161946 0.0797337 0.980055 -0.117282 0.000384915 0.00542242 0.00244391 0.0110955
             -0.000227294 0.000158556 0.000375986 0.00540068 0.999844 -0.0121123 4.41686e-05 0.00101865
             0.00035599 0.00742126 0.0021635 0.011427 7.09825e-05 0.00101455 0.982667 -0.176119
1.377e+08    0.982844 -0.106352 0.017308 0.0798735 -0.000225731 0.000166448 0.00032266 0.00779567
             0.0177452 0.0801397 0.980074 -0.117854 0.000395448 0.00547575 0.00192518 0.0109215
             -0.000216859 0.000156989 0.000375091 0.00544749 0.999838 -0.0122378 7.48476e-05 0.00104537
             7.01802e-05 0.00752704 0.0021179 0.0112529 7.34155e-05 0.00102499 0.982082 -0.178042
1.3915e+08   0.985489 -0.108806 0.0172092 0.0810962 -0.000229341 0.000169296 0.000526578 0.00758557
             0.0169325 0.0814053 0.980296 -0.119473 0.000405547 0.00552857 0.00153132 0.0114868
             -0.000236273 0.000164682 0.000372959 0.00551181 0.999832 -0.0123626 9.98459e-05 0.00103262
             0.000363636 0.00758049 0.00187131 0.0114485 7.58026e-05 0.00103527 0.981607 -0.179681
1.406e+08    0.982238 -0.108455 0.017989 0.0823742 -0.000232994 0.00017202 0.000307967 0.00739631
             0.0184535 0.0817215 0.979466 -0.121308 0.000415146 0.00558097 0.00187639 0.0121429
             -0.00022641 0.000161964 0.000388479 0.00557754 0.999826 -0.0124866 8.57116e-05 0.00101412
             8.03629e-05 0.0077071 0.00199267 0.01185 7.81206e-05 0.0010454 0.981432 -0.181348
1.4205e+08   0.984756 -0.111127 0.0188281 0.0827692 -0.000236714 0.00017462 -1.39994e-05 0.00761378
             0.0176891 0.0830712 0.978414 -0.122086 0.000424193 0.00563305 0.00252419 0.0121261
             -0.000245531 0.00017084 0.000405488 0.00562551 0.999821 -0.0126102 5.46856e-05 0.00103102
             0.000370883 0.00774061 0.00232287 0.011882 8.03483e-05 0.0010554 0.981314 -0.183309
1.435e+08    0.981627 -0.11056 0.0187902 0.0831139 -0.000240525 0.000177102 2.17818e-05 0.00805134
             0.019174 0.0833005 0.97841 -0.122651 0.000432652 0.0056849 0.00262075 0.0116191
             -0.000236197 0.000167182 0.000404841 0.00567216 0.999817 -0.0127333 5.24039e-05 0.00107467
             9.17033e-05 0.00788784 0.00228474 0.0117071 8.2467e-05 0.00106529 0.980928 -0.185416
1.4495e+08   0.984001 -0.113441 0.0187051 0.0843318 -0.000244448 0.000179474 0.00037423 0.00820857
             0.0184637 0.0847309 0.978617 -0.124258 0.000440504 0.00573664 0.00208356 0.0114993
             -0.00025488 0.000177065 0.000402956 0.00573638 0.999814 -0.0128561 8.43593e-05 0.00109851
             0.000377878 0.00790158 0.00203976 0.0118959 8.44614e-05 0.00107508 0.980321 -0.18731
1.464e+08    0.981009 -0.112669 0.0194996 0.0856069 -0.000248505 0.00018175 0.000546579 0.00798239
             0.0199064 0.0848772 0.977776 -0.126088 0.000447747 0.00578837 0.00173857 0.0120982
             -0.000246321 0.000172537 0.000418798 0.00580203 0.999812 -0.0129788 0.000107045 0.00108385
             0.000104108 0.00806914 0.00215664 0.0122963 8.63191e-05 0.00108481 0.979853 -0.188935
1.4785e+08   0.983223 -0.115746 0.0203558 0.0859981 -0.000252716 0.000183943 0.00030321 0.0078195
             0.0192565 0.0863842 0.976705 -0.126866 0.000454395 0.00584019 0.00213189 0.0127188
             -0.000264393 0.000183608 0.000436177 0.00584984 0.99981 -0.0131014 9.05104e-05 0.00106706
             0.000384655 0.0080636 0.00248804 0.0123334 8.80318e-05 0.00109448 0.979677 -0.190619
1.493e+08    0.980384 -0.114781 0.0203337 0.0863364 -0.000257096 0.000186073 -1.51668e-06 0.00806954
             0.0206513 0.0864517 0.976679 -0.127424 0.000460479 0.00589221 0.00276267 0.0126463
             -0.000256405 0.00017809 0.000435827 0.00589625 0.99981 -0.0132241 6.04629e-05 0.00108683
             0.000117779 0.00825087 0.0024574 0.0121579 8.95947e-05 0.00110414 0.979527 -0.1926
1.5075e+08   0.982425 -0.118042 0.0202622 0.0875492 -0.000261659 0.000188158 7.02953e-05 0.00850126
             0.0200677 0.0880307 0.97687 -0.12902 0.000466045 0.00594452 0.0028028 0.0121401
             -0.000274009 0.000190038 0.000434148 0.0059603 0.99981 -0.0133471 6.1303e-05 0.00113047
             0.000391135 0.0082265 0.00221422 0.0123399 9.10069e-05 0.0011138 0.979098 -0.194698
1.522e+08    0.979752 -0.116897 0.0210715 0.0888213 -0.000266416 0.000190222 0.000426836 0.00862323
             0.0214087 0.0880238 0.976018 -0.130844 0.000471153 0.00599721 0.00225266 0.0120758
             -0.000266835 0.000183754 0.000450239 0.00602587 0.999811 -0.0134705 9.41993e-05 0.00115138
             0.000132557 0.00843306 0.00232667 0.0127389 9.22712e-05 0.00112349 0.978473 -0.196563
1.5365e+08   0.981606 -0.120328 0.0219447 0.0892084 -0.000271376 0.000192287 0.000566245 0.00838448
             0.0208964 0.0896701 0.974929 -0.131621 0.000475876 0.00605035 0.00195932 0.0127036
             -0.000283888 0.00019662 0.00046797 0.00607357 0.999813 -0.0135943 0.00011443 0.00113508
             0.00039735 0.00839037 0.00265905 0.0127811 9.33943e-05 0.00113323 0.978013 -0.198177
1.551e+08    0.979111 -0.119018 0.0219385 0.08954 -0.00027654 0.000194378 0.000300987 0.00825028
             0.0221788 0.0895939 0.974882 -0.132172 0.000480296 0.006104 0.0023972 0.0132846
             -0.000277479 0.000189803 0.000467961 0.00611979 0.999815 -0.0137187 9.57188e-05 0.00112022
             0.000148327 0.0086157 0.00263576 0.0126049 9.43862e-05 0.00114305 0.977834 -0.19988
1.5655e+08   0.980767 -0.122603 0.0218804 0.0907476 -0.00028191 0.000196521 1.65895e-05 0.00853091
             0.0217428 0.091302 0.975057 -0.133756 0.000484505 0.00615823 0.00300605 0.0131588
             -0.000293638 0.000203299 0.00046655 0.00618365 0.999818 -0.0138438 6.69147e-05 0.00114269
             0.000403346 0.00855541 0.00239445 0.0127802 9.52604e-05 0.00115296 0.97765 -0.20188
1.58e+08     0.978463 -0.121144 0.0227044 0.0920165 -0.000287483 0.000198738 0.000123368 0.00895324
             0.0229616 0.091162 0.974193 -0.135575 0.000488601 0.00621305 0.00299064 0.0126588
             -0.000288403 0.00019575 0.000482931 0.00624909 0.999821 -0.0139696 7.07852e-05 0.00118597
             0.000165187 0.00879881 0.00250244 0.0131776 9.60332e-05 0.00116299 0.977178 -0.203965
1.5945e+08   0.979909 -0.124868 0.0235947 0.0923995 -0.000293251 0.000201056 0.000480231 0.00904006
             0.0226067 0.0929264 0.973087 -0.136351 0.000492687 0.00626849 0.00243314 0.0126506
             -0.000303773 0.000210196 0.000501019 0.00629663 0.999825 -0.0140962 0.00010424 0.00120391
             0.00040928 0.00872165 0.00283561 0.0132248 9.67234e-05 0.00117315 0.976538 -0.205801
1.609e+08    0.977805 -0.123275 0.0236046 0.0927241 -0.000299204 0.000203495 0.000585743 0.00879239
             0.0237578 0.0927279 0.973017 -0.136894 0.000496865 0.00632456 0.0021936 0.0133019
             -0.000299472 0.000202061 0.000501338 0.00634259 0.999828 -0.0142237 0.00012183 0.00118633
             0.000183162 0.00898216 0.00281963 0.0130482 9.7352e-05 0.00118346 0.976085 -0.207407
1.6235e+08   0.979031 -0.127122 0.0235599 0.0939261 -0.000305329 0.000206078 0.000301733 0.00868895
             0.0234875 0.0945428 0.973176 -0.138466 0.000501238 0.00638124 0.00267175 0.0138396
             -0.000313924 0.000217245 0.000500156 0.00640621 0.999832 -0.014352 0.000101162 0.00117368
             0.000414976 0.00888907 0.00258032 0.0132167 9.79419e-05 0.00119392 0.975901 -0.209131
1.638e+08    0.977137 -0.125412 0.0243985 0.0951918 -0.000311608 0.000208823 4.0568e-05 0.00899788
             0.024567 0.094292 0.972301 -0.140279 0.000505906 0.0064385 0.0032538 0.0136633
             -0.000310627 0.00020844 0.000516753 0.00647148 0.999836 -0.0144812 7.39427e-05 0.0011988
             0.000202157 0.00916593 0.00268386 0.0136124 9.85167e-05 0.00120454 0.975681 -0.211146
1.6525e+08   0.978136 -0.129364 0.025306 0.0955705 -0.000318024 0.000211747 0.000180924 0.00940738
             0.0243853 0.0961513 0.971178 -0.141054 0.000510963 0.00649629 0.0031841 0.0131749
             -0.000324354 0.000224243 0.000535118 0.00651889 0.999839 -0.0146112 8.091e-05 0.00124144
             0.000420635 0.00905781 0.00301763 0.0136645 9.91011e-05 0.00121533 0.975168 -0.213216
1.667e+08    0.976458 -0.127555 0.025332 0.0958878 -0.000324553 0.000214864 0.000534417 0.00945954
             0.0253901 0.0958544 0.971086 -0.141589 0.000516494 0.00655457 0.00262482 0.0132231
             -0.000322229 0.000215136 0.000535736 0.00656467 0.999842 -0.014742 0.000114731 0.0012563
             0.000222251 0.00935004 0.00300888 0.0134876 9.97196e-05 0.00122628 0.974515 -0.215023
1.6815e+08   0.977222 -0.131594 0.0253006 0.0970838 -0.000331173 0.000218183 0.000605468 0.00920666
             0.0252999 0.0977513 0.971229 -0.143149 0.000522575 0.00661326 0.00244075 0.0138927
             -0.000334848 0.000231723 0.000534837 0.00662811 0.999845 -0.0148735 0.000129597 0.00123756
             0.000426355 0.00922777 0.0027717 0.0136493 0.000100397 0.00123738 0.974071 -0.216624
1.696e+08    0.975768 -0.129703 0.0261536 0.0983461 -0.000337859 0.000221712 0.000306001 0.00913565
             0.0262271 0.0974149 0.970343 -0.144955 0.000529273 0.00667227 0.00295476 0.014384
             -0.000333596 0.000221951 0.00055174 0.0066932 0.999847 -0.0150056 0.000107125 0.00122718
             0.000243227 0.00953431 0.00287081 0.0140431 0.000101155 0.00124864 0.973878 -0.218369
1.7105e+08   0.976292 -0.133812 0.0270785 0.0987205 -0.000344585 0.000225453 7.06773e-05 0.00947032
             0.026231 0.0993426 0.969202 -0.145729 0.000536637 0.00673153 0.00350562 0.0141602
             -0.000345657 0.000238953 0.000570406 0.00674036 0.999848 -0.0151383 8.15921e-05 0.00125471
             0.000431944 0.00939923 0.003205 0.0141001 0.000102017 0.00126003 0.973621 -0.220398
