# Hz S RI R 50
1e+08        0.989973 -0.0664351 0.0117216 0.0525205 -0.000114227 0.000103313 -0.000207955 0.00450964
             0.0117103 0.0525916 0.985585 -0.0807225 0.000216444 0.00416899 0.00128838 0.00573894
             -0.000132425 0.000113791 0.000237756 0.00414604 0.999938 -0.00945206 -1.11214e-05 3.38682e-05
             -0.000129995 0.00438518 0.00126221 0.0058295 -8.46746e-06 3.46972e-05 0.986801 -0.145671
1.0145e+08   0.990096 -0.0678665 0.0120869 0.0530974 -0.000132904 9.11802e-05 -0.000215048 0.00462831
             0.0119606 0.0530629 0.985159 -0.0820111 0.000245338 0.00425111 0.00131528 0.00580586
             -0.00012514 9.07535e-05 0.000235056 0.00425709 0.999893 -0.00963498 -1.28279e-05 3.29764e-05
             -0.000248828 0.00475711 0.00135454 0.00571643 -1.31892e-05 3.05856e-05 0.987135 -0.147381
1.029e+08    0.989449 -0.0682612 0.0123802 0.053928 -0.000144945 0.000112626 -0.000175924 0.00468321
             0.0123917 0.0539972 0.984771 -0.0829256 0.000264837 0.0042813 0.00134571 0.0058926
             -0.000137939 0.000119031 0.000253239 0.00426567 0.999864 -0.00971489 -1.39818e-05 3.54169e-05
             -0.000161738 0.0045214 0.00132056 0.00597631 -1.64042e-05 3.68972e-05 0.98693 -0.150222
1.0435e+08   0.989501 -0.0697341 0.0127717 0.0545056 -0.000127976 0.000116662 -0.000214653 0.00471867
             0.0126165 0.0544765 0.984359 -0.0842092 0.000239162 0.0043376 0.00139416 0.00596863
             -0.00013404 9.50096e-05 0.000243676 0.00437472 0.999925 -0.00984452 -1.22294e-05 3.60766e-05
             -0.000241023 0.00490496 0.00143956 0.00587274 -1.04012e-05 3.83272e-05 0.985868 -0.152134
1.058e+08    0.988913 -0.0700841 0.0130561 0.0553251 -0.000136937 9.89987e-05 -0.000242028 0.00483442
             0.0130889 0.0553914 0.983937 -0.0851185 0.000252904 0.00442807 0.00142679 0.00603212
             -0.000143533 0.000124236 0.000268695 0.00438559 0.99991 -0.0100435 -1.32307e-05 3.474e-05
             -0.000194146 0.0046611 0.00138136 0.00612023 -1.1997e-05 3.26439e-05 0.985985 -0.153618
1.0725e+08   0.98889 -0.0715908 0.013473 0.0559056 -0.000157819 0.00011327 -0.000199045 0.00491034
             0.0132905 0.0558832 0.983538 -0.0863941 0.000285885 0.00446964 0.00145452 0.0061147
             -0.000143121 9.95816e-05 0.000252737 0.00449194 0.999855 -0.0101467 -1.50436e-05 3.66678e-05
             -0.000232916 0.00505114 0.00152542 0.00602964 -1.7788e-05 3.65708e-05 0.986049 -0.156348
1.087e+08    0.988366 -0.0719041 0.0137494 0.0567116 -0.000144902 0.000127888 -0.000220098 0.00493498
             0.0138017 0.0567737 0.983083 -0.0873012 0.000266789 0.00450977 0.00150269 0.00619477
             -0.000149296 0.000129269 0.000284434 0.00450586 0.999903 -0.0102448 -1.35125e-05 3.81062e-05
             -0.00022685 0.00480441 0.00144492 0.00626123 -1.31793e-05 4.11769e-05 0.984965 -0.158564
1.1015e+08   0.988264 -0.0734359 0.0141905 0.0572973 -0.00014275 0.000110683 -0.000264832 0.00503943
             0.0139826 0.0572826 0.982697 -0.0885657 0.000263415 0.00459927 0.00154165 0.00625688
             -0.000152546 0.000104541 0.00026244 0.00460841 0.999922 -0.0104413 -1.37496e-05 3.66268e-05
             -0.000224749 0.00519561 0.00161178 0.00618688 -1.13153e-05 3.57989e-05 0.984793 -0.159922
1.116e+08    0.987806 -0.0737214 0.0144601 0.0580874 -0.000167317 0.000114311 -0.000226854 0.00513658
             0.0145295 0.0581445 0.982209 -0.0894734 0.000301825 0.00465743 0.00156838 0.00633399
             -0.000155179 0.000134415 0.000300109 0.00462628 0.999857 -0.0105778 -1.60346e-05 3.78748e-05
             -0.000259556 0.00495128 0.00151141 0.00639945 -1.80278e-05 3.63468e-05 0.985059 -0.162441
1.1305e+08   0.987621 -0.0752694 0.0149237 0.0586803 -0.000163317 0.000135934 -0.000226594 0.00515883
             0.0146929 0.0586743 0.981836 -0.0907235 0.000296744 0.00468706 0.00161437 0.00641693
             -0.00016193 0.000109785 0.000272714 0.00472438 0.999878 -0.0106558 -1.50146e-05 4.00283e-05
             -0.000216924 0.0053385 0.00169836 0.00634417 -1.62661e-05 4.29327e-05 0.984076 -0.164937
1.145e+08    0.987234 -0.0755359 0.0151881 0.0594524 -0.000151956 0.000124949 -0.000282391 0.00524542
             0.0152718 0.0595037 0.981316 -0.0916348 0.000279403 0.00476673 0.00165931 0.00647978
             -0.000161356 0.000139282 0.000315809 0.00474687 0.999925 -0.0108324 -1.44278e-05 3.87513e-05
             -0.000291801 0.00510182 0.00158087 0.00653516 -1.1639e-05 3.96125e-05 0.983588 -0.166287
1.1595e+08   0.986964 -0.0770909 0.0156726 0.0600543 -0.000174018 0.000117729 -0.000257707 0.0053603
             0.0154216 0.060058 0.980954 -0.0928679 0.000313698 0.00484159 0.00168707 0.00655099
             -0.000171638 0.000115485 0.000283546 0.00483979 0.999869 -0.0110022 -1.68642e-05 3.91581e-05
             -0.000209563 0.00547985 0.00178506 0.00650144 -1.73542e-05 3.68274e-05 0.983957 -0.168527
1.174e+08    0.986648 -0.0773477 0.0159335 0.0608065 -0.000181236 0.000140754 -0.000236352 0.0053895
             0.0160283 0.0608513 0.980405 -0.0937848 0.000326025 0.00486939 0.00172968 0.00663501
             -0.000167695 0.000144226 0.000331405 0.00486778 0.999855 -0.0110777 -1.66355e-05 4.17828e-05
             -0.000323188 0.00525572 0.00165361 0.00666842 -1.90563e-05 4.36158e-05 0.983175 -0.171234
1.1885e+08   0.986293 -0.0789 0.0164366 0.061419 -0.000165233 0.000139887 -0.000294506 0.0054548
             0.0161687 0.061433 0.980052 -0.0949983 0.000301854 0.00493331 0.00177945 0.00670034
             -0.000181404 0.00012151 0.000295301 0.0049548 0.999916 -0.0112231 -1.5342e-05 4.10937e-05
             -0.000203219 0.00561962 0.0018716 0.00665828 -1.31536e-05 4.3481e-05 0.982394 -0.172697
1.203e+08    0.986048 -0.0791565 0.0166961 0.0621496 -0.000179467 0.000124901 -0.000289358 0.00558064
             0.0167986 0.0621877 0.979476 -0.0959233 0.00032385 0.00501992 0.00181025 0.00676598
             -0.000174317 0.000149169 0.000347026 0.00498855 0.999886 -0.0114159 -1.74944e-05 4.06563e-05
             -0.00035361 0.00541314 0.00172961 0.00679953 -1.62789e-05 3.84138e-05 0.982748 -0.174637
1.2175e+08   0.985609 -0.0806967 0.0172157 0.0627739 -0.000196919 0.000143326 -0.00025109 0.0056253
             0.0169342 0.062799 0.97913 -0.0971148 0.000351849 0.00505516 0.00184908 0.00684896
             -0.000191153 0.000127918 0.000307638 0.00506922 0.999841 -0.0115073 -1.81725e-05 4.33048e-05
             -0.000197912 0.00575824 0.0019579 0.00681454 -2.10366e-05 4.35589e-05 0.982232 -0.177452
1.232e+08    0.985434 -0.0809622 0.0174758 0.0634818 -0.000182154 0.000153547 -0.000302024 0.0056699
             0.0175825 0.0635127 0.978528 -0.0980498 0.000329961 0.00510204 0.00190186 0.00691789
             -0.000181251 0.000154013 0.000362354 0.00510939 0.999896 -0.0116192 -1.65625e-05 4.34222e-05
             -0.000382499 0.00557369 0.00180903 0.00692871 -1.57119e-05 4.68092e-05 0.981228 -0.179127
1.2465e+08   0.984911 -0.0824808 0.0180094 0.0641189 -0.000185694 0.000136161 -0.000319324 0.00579785
             0.0177181 0.0641551 0.978188 -0.0992172 0.000335411 0.00519205 0.00193733 0.00697917
             -0.000200956 0.000134836 0.000320753 0.0051834 0.9999 -0.0118182 -1.81703e-05 4.24144e-05
             -0.000194074 0.0058957 0.00204387 0.00696987 -1.54585e-05 4.11979e-05 0.981451 -0.180792
1.261e+08    0.984806 -0.0827647 0.0182727 0.0648028 -0.000209364 0.000145393 -0.000271482 0.00586402
             0.0183795 0.0648268 0.977563 -0.100164 0.000372743 0.0052417 0.00197288 0.00705911
             -0.000188193 0.000158808 0.000377645 0.00523016 0.999838 -0.011939 -1.96382e-05 4.48174e-05
             -0.000409681 0.0057373 0.00189189 0.00705618 -2.19177e-05 4.33633e-05 0.981219 -0.183596
1.2755e+08   0.984202 -0.0842523 0.0188177 0.0654534 -0.000201355 0.000164492 -0.000306527 0.00589244
             0.0185204 0.0655009 0.977225 -0.101306 0.00036158 0.00527511 0.00202661 0.00713193
             -0.000210815 0.000141732 0.000334629 0.00529708 0.999872 -0.0120251 -1.7971e-05 4.58287e-05
             -0.000191926 0.00603228 0.00212946 0.00712399 -1.88191e-05 4.91922e-05 0.980094 -0.185548
1.29e+08     0.984163 -0.0845634 0.0190865 0.0661129 -0.000194569 0.000150695 -0.00034533 0.0060129
             0.0191892 0.06613 0.976581 -0.102265 0.000351206 0.00535927 0.00206777 0.00719056
             -0.000195833 0.000163618 0.000392532 0.00535076 0.999906 -0.0122119 -1.8771e-05 4.44797e-05
             -0.000434887 0.00590381 0.00197823 0.00718216 -1.54207e-05 4.48636e-05 0.980089 -0.187007
1.3045e+08   0.983482 -0.0860112 0.0196401 0.0667772 -0.000218642 0.00014897 -0.000297312 0.00610311
             0.0193408 0.0668362 0.976243 -0.10338 0.000388802 0.0054259 0.0021013 0.0072658
             -0.000220693 0.000149321 0.000349207 0.00541067 0.999845 -0.0123667 -2.08316e-05 4.62694e-05
             -0.000191499 0.00616827 0.0022146 0.00727655 -2.1761e-05 4.36109e-05 0.980113 -0.189684
1.319e+08    0.983504 -0.0863581 0.0199171 0.0674118 -0.00022096 0.0001722 -0.000310402 0.00612331
             0.0200118 0.0674226 0.975581 -0.104353 0.000393762 0.00545335 0.00215393 0.00734193
             -0.000203497 0.000168493 0.000407281 0.00547119 0.999847 -0.012442 -1.95095e-05 4.80599e-05
             -0.000457859 0.00607274 0.00206794 0.00730693 -2.19101e-05 5.04869e-05 0.978986 -0.191932
1.3335e+08   0.982751 -0.0877576 0.0204767 0.0680899 -0.000207229 0.000166864 -0.00036574 0.00622777
             0.0201791 0.06816 0.975242 -0.10544 0.000373007 0.00552425 0.00220103 0.0073999
             -0.000230524 0.00015702 0.00036449 0.00552407 0.999902 -0.0126022 -1.94892e-05 4.67248e-05
             -0.000193208 0.00630393 0.0022993 0.00742731 -1.65043e-05 4.88924e-05 0.978691 -0.193286
1.348e+08    0.98283 -0.0881485 0.0207643 0.0686997 -0.000225859 0.000155751 -0.000327265 0.00634041
             0.0208471 0.0687047 0.974565 -0.106428 0.0004019 0.00560521 0.00223431 0.00746945
             -0.000211606 0.000173424 0.000421827 0.00559145 0.999859 -0.0127853 -2.18667e-05 4.77621e-05
             -0.000478399 0.00624401 0.00216094 0.00743077 -2.09353e-05 4.48198e-05 0.978898 -0.195742
1.3625e+08   0.982009 -0.0894918 0.021327 0.0693911 -0.000239073 0.000177177 -0.000316169 0.00636233
             0.0210352 0.0694718 0.974221 -0.107485 0.000423626 0.00563587 0.0022842 0.00754745
             -0.000240296 0.000165081 0.000380628 0.00563736 0.999828 -0.0128683 -2.1148e-05 5.016e-05
             -0.000197077 0.00643953 0.00238366 0.007576 -2.43881e-05 5.0881e-05 0.977887 -0.198255
1.377e+08    0.982139 -0.0899337 0.0216279 0.0699766 -0.000223767 0.000182694 -0.000379783 0.00644495
             0.0216948 0.0699765 0.973533 -0.108488 0.000400865 0.00569002 0.0023365 0.00760675
             -0.000219985 0.000178394 0.000436211 0.00571127 0.999887 -0.0129954 -2.03395e-05 4.91666e-05
             -0.000496381 0.00641732 0.00225713 0.00755387 -1.86933e-05 5.26506e-05 0.977284 -0.199621
1.3915e+08   0.981259 -0.0912139 0.0221912 0.0706805 -0.000232856 0.000166572 -0.000359163 0.0065745
             0.0219086 0.0707714 0.973181 -0.109517 0.000414885 0.0057784 0.00237157 0.00767056
             -0.000250105 0.000173343 0.000397416 0.00575052 0.999874 -0.0131927 -2.26876e-05 4.93498e-05
             -0.000203161 0.00657543 0.00246771 0.00772241 -2.00295e-05 4.71959e-05 0.977573 -0.201798
1.406e+08    0.981432 -0.0917135 0.0225077 0.0712425 -0.000254316 0.000180839 -0.000325988 0.0066082
             0.022555 0.0712383 0.972484 -0.110534 0.0004491 0.00582046 0.00241791 0.00774849
             -0.000228731 0.000183624 0.00045032 0.00583073 0.999819 -0.0132993 -2.28006e-05 5.20229e-05
             -0.000511669 0.00659232 0.00235644 0.00767651 -2.58574e-05 5.08165e-05 0.976771 -0.204501
1.4205e+08   0.980499 -0.0929242 0.0230689 0.0719577 -0.000243235 0.000196475 -0.000387731 0.00666701
             0.022799 0.072058 0.972122 -0.111534 0.000433277 0.0058592 0.00247395 0.0078105
             -0.000259691 0.000181788 0.000414906 0.00586376 0.999863 -0.0133964 -2.14643e-05 5.16922e-05
             -0.000211515 0.00671188 0.00255162 0.00786621 -2.16868e-05 5.55906e-05 0.975891 -0.205994
1.435e+08    0.980708 -0.0934873 0.0234033 0.0724973 -0.00024161 0.000181148 -0.000390411 0.00680489
             0.0234278 0.0724903 0.97142 -0.112566 0.000430839 0.00594598 0.00251254 0.00786931
             -0.000237978 0.000188906 0.000464312 0.0059497 0.999884 -0.0135899 -2.34333e-05 5.11788e-05
             -0.000524293 0.00676865 0.00245865 0.00779885 -1.97133e-05 5.06033e-05 0.976146 -0.207879
1.4495e+08   0.979732 -0.094623 0.0239601 0.0732225 -0.000266248 0.000185109 -0.000341301 0.00685876
             0.0237061 0.0733311 0.971045 -0.113537 0.000469583 0.0060041 0.00255533 0.00794522
             -0.000269196 0.00019068 0.000432994 0.00597707 0.999821 -0.013729 -2.43442e-05 5.37866e-05
             -0.000222197 0.00684935 0.00263552 0.00800715 -2.62685e-05 5.09445e-05 0.975609 -0.210669
1.464e+08    0.979968 -0.0952544 0.0243146 0.0737411 -0.000263961 0.000207234 -0.000390877 0.00689623
             0.0243131 0.0737323 0.97034 -0.114582 0.000467608 0.00603323 0.00261324 0.00801067
             -0.000247319 0.000194281 0.000478247 0.0060682 0.999837 -0.0138081 -2.27641e-05 5.42279e-05
             -0.000534145 0.00694601 0.00256346 0.00792105 -2.49435e-05 5.75026e-05 0.974526 -0.212382
1.4785e+08   0.978956 -0.0963109 0.0248648 0.0744745 -0.000253628 0.000198197 -0.00041835 0.00703214
             0.0246293 0.0745904 0.969949 -0.115526 0.000452041 0.00611002 0.00265669 0.00806589
             -0.00027874 0.000199564 0.000451744 0.00609039 0.999884 -0.0139813 -2.41361e-05 5.3212e-05
             -0.000235226 0.00698816 0.00271953 0.00814512 -2.03981e-05 5.46407e-05 0.974635 -0.214006
1.493e+08    0.979211 -0.097014 0.0252411 0.0749738 -0.000275504 0.000191855 -0.00036251 0.00711137
             0.025211 0.0749648 0.969244 -0.116583 0.000486168 0.00618394 0.00269675 0.00813797
             -0.000257104 0.0002 0.000492009 0.00618605 0.999832 -0.0141519 -2.57471e-05 5.54719e-05
             -0.000541177 0.00712417 0.00267069 0.00804332 -2.58349e-05 5.18385e-05 0.974373 -0.216766
1.5075e+08   0.978173 -0.0979882 0.0257827 0.0757134 -0.000284025 0.000214989 -0.000391434 0.00713415
             0.0255682 0.0758355 0.968836 -0.1175 0.000500923 0.00621198 0.00275454 0.00820675
             -0.000288068 0.000208658 0.000470938 0.00620392 0.999815 -0.0142302 -2.42113e-05 5.67088e-05
             -0.000250435 0.00712855 0.00280388 0.00827992 -2.7851e-05 5.84349e-05 0.973191 -0.218755
1.522e+08    0.978437 -0.0987656 0.0261826 0.0761955 -0.000269505 0.000215864 -0.000440765 0.0072579
             0.0261218 0.0761876 0.968132 -0.118567 0.000479328 0.00627336 0.00280344 0.00826015
             -0.000267129 0.000205884 0.000505795 0.00630341 0.999873 -0.0143726 -2.48379e-05 5.54138e-05
             -0.000545557 0.00730277 0.00278005 0.00816577 -2.22157e-05 5.87198e-05 0.973064 -0.220192
1.5365e+08   0.977383 -0.0996555 0.0267139 0.076939 -0.000283618 0.00020234 -0.000388788 0.00736345
             0.0265223 0.077066 0.967705 -0.11946 0.000501226 0.00635808 0.0028422 0.00832713
             -0.000297256 0.000217663 0.000490763 0.0063176 0.999846 -0.0145643 -2.70174e-05 5.7064e-05
             -0.000267762 0.00727095 0.0028888 0.00841146 -2.50444e-05 5.3858e-05 0.973042 -0.222811
1.551e+08    0.977646 -0.100509 0.0271388 0.0774061 -0.000301778 0.000220756 -0.000391983 0.00738122
             0.0270455 0.0774008 0.967006 -0.120536 0.00053069 0.00639383 0.00289808 0.00839833
             -0.000277841 0.00021182 0.000519628 0.00641999 0.999801 -0.0146592 -2.58812e-05 5.90768e-05
             -0.000547268 0.00748156 0.00289131 0.00828847 -2.98979e-05 5.87336e-05 0.971878 -0.225085
1.5655e+08   0.976585 -0.101313 0.0276583 0.0781511 -0.000288771 0.000232281 -0.000456214 0.00748449
             0.027491 0.0782816 0.966557 -0.121405 0.000511911 0.00643889 0.00295225 0.00845186
             -0.000306692 0.000227212 0.000510941 0.00643141 0.999852 -0.0147696 -2.56694e-05 5.78855e-05
             -0.000286996 0.00741552 0.00297449 0.00853957 -2.4961e-05 6.22516e-05 0.971462 -0.226438
1.58e+08     0.976839 -0.102242 0.0281091 0.0786055 -0.000292538 0.0002168 -0.000418343 0.00761286
             0.0279824 0.0786043 0.965864 -0.122488 0.0005178 0.00652623 0.00299156 0.00851317
             -0.000288444 0.000218387 0.000533432 0.00653586 0.999858 -0.0149659 -2.80679e-05 5.87439e-05
             -0.000546609 0.00766023 0.00300409 0.00841143 -2.45061e-05 5.70127e-05 0.971604 -0.228829
1.5945e+08   0.975781 -0.102961 0.0286158 0.0793493 -0.000316338 0.000226251 -0.000395176 0.00763673
             0.0284736 0.0794821 0.965392 -0.123336 0.000555591 0.0065761 0.00304427 0.00858518
             -0.000315797 0.000236491 0.000531397 0.00654554 0.999797 -0.0150897 -2.7598e-05 6.12719e-05
             -0.000307995 0.00756272 0.00306113 0.00866428 -3.0848e-05 5.89418e-05 0.970569 -0.231352
1.609e+08    0.976015 -0.103965 0.0290933 0.0797937 -0.000310073 0.000246119 -0.000464298 0.00771469
             0.0289326 0.0797979 0.964708 -0.124424 0.000547605 0.00660865 0.00310268 0.00864051
             -0.000299625 0.000225151 0.000547451 0.00665114 0.999827 -0.0151762 -2.66698e-05 6.05103e-05
             -0.000543628 0.00783856 0.00311817 0.00853474 -2.81771e-05 6.484e-05 0.969855 -0.232736
1.6235e+08   0.974971 -0.104601 0.0295865 0.0805335 -0.000304013 0.000234414 -0.00044858 0.0078584
             0.0294695 0.0806671 0.96421 -0.125252 0.000538568 0.00668978 0.00314439 0.00869647
             -0.000324826 0.000246038 0.000552202 0.00665987 0.999862 -0.0153595 -2.89397e-05 6.05662e-05
             -0.000330499 0.00771279 0.003149 0.00878551 -2.47454e-05 6.09879e-05 0.970058 -0.234849
1.638e+08    0.975175 -0.105678 0.030091 0.0809706 -0.000327832 0.000233398 -0.000403121 0.00789887
             0.0298962 0.0809819 0.963536 -0.126342 0.000575959 0.00675581 0.00319351 0.0087674
             -0.000310974 0.000232136 0.000561693 0.00676568 0.999803 -0.0155159 -2.92609e-05 6.32787e-05
             -0.000538478 0.00801632 0.00323319 0.00865832 -3.07918e-05 5.96438e-05 0.969237 -0.237541
1.6525e+08   0.974153 -0.106233 0.0305704 0.0817035 -0.000331578 0.000256922 -0.000465794 0.00795123
             0.0304782 0.0818368 0.963013 -0.127153 0.000583586 0.00678323 0.00325454 0.0088256
             -0.000333981 0.000255609 0.000573226 0.00677441 0.999801 -0.0155935 -2.78566e-05 6.31567e-05
             -0.000354252 0.00786586 0.0032383 0.00890329 -3.12809e-05 6.63771e-05 0.968263 -0.239065
1.667e+08    0.974318 -0.107379 0.0311017 0.082136 -0.000319087 0.000253574 -0.000476569 0.0081
             0.0308734 0.0821558 0.96235 -0.128244 0.000565069 0.00685126 0.00330018 0.00887725
             -0.000322556 0.000239671 0.00057625 0.00687955 0.999855 -0.0157504 -2.97441e-05 6.25066e-05
             -0.000531481 0.00819333 0.00334888 0.00878214 -2.6047e-05 6.52381e-05 0.968414 -0.240896
1.6815e+08   0.97333 -0.107857 0.0315673 0.0828593 -0.000337384 0.000243781 -0.000416885 0.00816503
             0.0314994 0.082991 0.9618 -0.12904 0.000593613 0.00693059 0.00334609 0.00894522
             -0.000342915 0.000265182 0.000594453 0.00688907 0.999815 -0.0159332 -3.09264e-05 6.51205e-05
             -0.000378974 0.00802221 0.00332926 0.00901769 -3.01292e-05 6.12827e-05 0.967855 -0.243653
1.696e+08    0.973447 -0.109067 0.032125 0.0832898 -0.000351465 0.000265248 -0.000462472 0.00819621
             0.0318644 0.0833193 0.961149 -0.130128 0.000617089 0.00696167 0.00340783 0.00900663
             -0.000334418 0.000247389 0.000591039 0.00699266 0.999783 -0.0160195 -2.93279e-05 6.58775e-05
             -0.00052285 0.00836944 0.00346496 0.00890611 -3.37361e-05 6.70706e-05 0.966699 -0.245403
1.7105e+08   0.972499 -0.109474 0.0325772 0.0840007 -0.000337781 0.000272374 -0.000499605 0.00833866
