
! 1-port S-parameter data taken at 201 frequency points
! Created by R&S SxP Library version 0.2.0 at 07-05-2024 09:23:32

# Hz S RI R 50


1e+08 0.0248305 -0.0201301
1.145e+08 0.0225875 -0.0216452
1.29e+08 0.0209185 -0.0210864
1.435e+08 0.0188612 -0.0240409
1.58e+08 0.0153272 -0.0303369
1.725e+08 0.00971358 -0.0291416
1.87e+08 0.000109651 -0.0293968
2.015e+08 0.00094062 -0.0330734
2.16e+08 0.00436165 -0.0374629
2.305e+08 0.00436421 -0.0358817
2.45e+08 -0.00175562 -0.038498
2.595e+08 -0.004784 -0.0406416
2.74e+08 -0.00658802 -0.0414548
2.885e+08 -0.00760858 -0.0439361
3.03e+08 -0.00928799 -0.0449606
3.175e+08 -0.010668 -0.0457213
3.32e+08 -0.0173244 -0.042219
3.465e+08 -0.0185546 -0.0435196
3.61e+08 -0.0230413 -0.0499665
3.755e+08 -0.0287712 -0.0409291
3.9e+08 -0.0304959 -0.0432395
4.045e+08 -0.0355173 -0.0480899
4.19e+08 -0.0358772 -0.0431839
4.335e+08 -0.0364362 -0.0447565
4.48e+08 -0.0354953 -0.0411607
4.625e+08 -0.0443682 -0.0393604
4.77e+08 -0.0462474 -0.035328
4.915e+08 -0.0529204 -0.0438718
5.06e+08 -0.0504829 -0.0404381
5.205e+08 -0.0452811 -0.0288591
5.35e+08 -0.0464209 -0.0332923
5.495e+08 -0.0592121 -0.0341909
5.64e+08 -0.0588418 -0.0305411
5.785e+08 -0.0550092 -0.0303301
5.93e+08 -0.0586468 -0.0294721
6.075e+08 -0.0635691 -0.024563
6.22e+08 -0.0587887 -0.0204978
6.365e+08 -0.0667904 -0.0208116
6.51e+08 -0.0568474 -0.016318
6.655e+08 -0.0617874 -0.0129106
6.8e+08 -0.0609151 -0.0140199
6.945e+08 -0.0598083 -0.00599637
7.09e+08 -0.0601442 -0.0105462
7.235e+08 -0.0649616 -0.0117796
7.38e+08 -0.0621809 -0.00122109
7.525e+08 -0.0616245 -0.000843559
7.67e+08 -0.0636596 7.45789e-05
7.815e+08 -0.0581449 0.00556508
7.96e+08 -0.0618217 0.00172735
8.105e+08 -0.0598627 0.00720795
8.25e+08 -0.057978 0.0119395
8.395e+08 -0.0583278 0.00975173
8.54e+08 -0.0582504 0.0119782
8.685e+08 -0.0544204 0.0149646
8.83e+08 -0.0558807 0.0156864
8.975e+08 -0.0515551 0.0157048
9.12e+08 -0.0514864 0.0175394
9.265e+08 -0.0487429 0.0224288
9.41e+08 -0.0485724 0.0200538
9.555e+08 -0.0465541 0.0204175
9.7e+08 -0.0442165 0.0211558
9.845e+08 -0.0414411 0.0200832
9.99e+08 -0.0385907 0.0223161
1.0135e+09 -0.0371154 0.0240702
1.028e+09 -0.0371779 0.0245529
1.0425e+09 -0.0329336 0.0214636
1.057e+09 -0.0340906 0.0210935
1.0715e+09 -0.0301498 0.0215011
1.086e+09 -0.029127 0.0207837
1.1005e+09 -0.0269752 0.0214928
1.115e+09 -0.0247106 0.0194429
1.1295e+09 -0.0242333 0.0189326
1.144e+09 -0.0266266 0.0173217
1.1585e+09 -0.0206602 0.0166528
1.173e+09 -0.0193271 0.0155941
1.1875e+09 -0.0186346 0.0137607
1.202e+09 -0.0176853 0.0102178
1.2165e+09 -0.0166403 0.0136439
1.231e+09 -0.0180135 0.0104808
1.2455e+09 -0.0119974 0.0109978
1.26e+09 -0.0101045 0.00364036
1.2745e+09 -0.0119096 0.00545787
1.289e+09 -0.0101791 0.00473198
1.3035e+09 -0.0115308 -0.00103492
1.318e+09 -0.0109656 -0.000928988
1.3325e+09 -0.0113595 -0.00320219
1.347e+09 -0.00987963 -0.00666498
1.3615e+09 -0.0110277 -0.00780647
1.376e+09 -0.0117961 -0.00968502
1.3905e+09 -0.0122566 -0.0113105
1.405e+09 -0.0127918 -0.0130466
1.4195e+09 -0.0178795 -0.0162552
1.434e+09 -0.0141266 -0.0181599
1.4485e+09 -0.0135923 -0.0187166
1.463e+09 -0.0185276 -0.0213507
1.4775e+09 -0.0173508 -0.0238697
1.492e+09 -0.0178165 -0.0241551
1.5065e+09 -0.0244373 -0.0265691
1.521e+09 -0.0230391 -0.0272655
1.5355e+09 -0.0249289 -0.0286753
1.55e+09 -0.0262893 -0.0292983
1.5645e+09 -0.0274689 -0.0345561
1.579e+09 -0.03222 -0.0307056
1.5935e+09 -0.0324674 -0.03142
1.608e+09 -0.0369051 -0.0307434
1.6225e+09 -0.0361963 -0.034843
1.637e+09 -0.0410865 -0.0380819
1.6515e+09 -0.0414794 -0.0360451
1.666e+09 -0.0425539 -0.0357506
1.6805e+09 -0.0434733 -0.0344181
1.695e+09 -0.0489015 -0.0391845
1.7095e+09 -0.0509028 -0.0359387
1.724e+09 -0.0518016 -0.0356466
1.7385e+09 -0.0564162 -0.0347675
1.753e+09 -0.0590252 -0.0337274
1.7675e+09 -0.0589118 -0.0338334
1.782e+09 -0.0634899 -0.0349611
1.7965e+09 -0.0662566 -0.0307485
1.811e+09 -0.0666002 -0.0318538
1.8255e+09 -0.0689736 -0.0330979
1.84e+09 -0.0723505 -0.0272512
1.8545e+09 -0.0732971 -0.0282487
1.869e+09 -0.0746212 -0.0263127
1.8835e+09 -0.0781421 -0.0262693
1.898e+09 -0.0788946 -0.0253107
1.9125e+09 -0.0790143 -0.0209822
1.927e+09 -0.0821913 -0.0199081
1.9415e+09 -0.0826524 -0.0190523
1.956e+09 -0.0874467 -0.0172621
1.9705e+09 -0.0881226 -0.0172056
1.985e+09 -0.0876783 -0.0151294
1.9995e+09 -0.0894489 -0.0117518
2.014e+09 -0.0899548 -0.00683067
2.0285e+09 -0.091254 -0.00912547
2.043e+09 -0.0936781 -0.00520303
2.0575e+09 -0.0967538 -0.00451357
2.072e+09 -0.0953823 -0.000288032
2.0865e+09 -0.0976466 0.00137369
2.101e+09 -0.0964873 0.00449622
2.1155e+09 -0.0972969 0.00473618
2.13e+09 -0.0972742 0.00716814
2.1445e+09 -0.0973324 0.0113176
2.159e+09 -0.09954 0.00766192
2.1735e+09 -0.0975437 0.0126314
2.188e+09 -0.0973866 0.0167009
2.2025e+09 -0.0972699 0.019826
2.217e+09 -0.0948767 0.0202215
2.2315e+09 -0.0961498 0.0254187
2.246e+09 -0.0972133 0.0238561
2.2605e+09 -0.09431 0.0302072
2.275e+09 -0.0947003 0.0301386
2.2895e+09 -0.0969641 0.0348113
2.304e+09 -0.0942134 0.0351349
2.3185e+09 -0.0964334 0.0335771
2.333e+09 -0.097275 0.0418899
2.3475e+09 -0.0917841 0.0410552
2.362e+09 -0.0912714 0.0424188
2.3765e+09 -0.0909161 0.0438203
2.391e+09 -0.0909447 0.045578
2.4055e+09 -0.091684 0.0458651
2.42e+09 -0.088274 0.0464692
2.4345e+09 -0.0890651 0.0491261
2.449e+09 -0.086777 0.0486489
2.4635e+09 -0.0856427 0.0541577
2.478e+09 -0.0840641 0.0544587
2.4925e+09 -0.086299 0.0547256
2.507e+09 -0.0836987 0.0544121
2.5215e+09 -0.0802581 0.0568658
2.536e+09 -0.0767472 0.0599916
2.5505e+09 -0.0784659 0.0564285
2.565e+09 -0.078113 0.0619629
2.5795e+09 -0.0742354 0.0599035
2.594e+09 -0.0742736 0.0634988
2.6085e+09 -0.0716303 0.061278
2.623e+09 -0.0728094 0.0643979
2.6375e+09 -0.0706544 0.0662988
2.652e+09 -0.0706827 0.0680739
2.6665e+09 -0.0693816 0.0670655
2.681e+09 -0.067615 0.0681118
2.6955e+09 -0.066858 0.0702625
2.71e+09 -0.063074 0.0676378
2.7245e+09 -0.0638806 0.0687319
2.739e+09 -0.0623512 0.0695496
2.7535e+09 -0.0618053 0.0691934
2.768e+09 -0.0597898 0.0702573
2.7825e+09 -0.0584609 0.0689337
2.797e+09 -0.0619822 0.0708344
2.8115e+09 -0.0553631 0.0701185
2.826e+09 -0.0549356 0.072537
2.8405e+09 -0.0543773 0.072232
2.855e+09 -0.0513693 0.0718793
2.8695e+09 -0.0517378 0.0704678
2.884e+09 -0.0528283 0.0733256
2.8985e+09 -0.0489198 0.0717333
2.913e+09 -0.0478769 0.072017
2.9275e+09 -0.0475214 0.0738857
2.942e+09 -0.0487717 0.0734193
2.9565e+09 -0.0456338 0.0712897
2.971e+09 -0.0407728 0.0704942
2.9855e+09 -0.043559 0.0717204
3e+09 -0.0418789 0.0720885

