
! 1-port S-parameter data taken at 201 frequency points
! Created by R&S SxP Library version 0.2.0 at 07-05-2024 10:26:40

# Hz S RI R 50


1e+08 0.0176949 -0.0323888
1.145e+08 0.0157232 -0.0373654
1.29e+08 0.0122619 -0.0381734
1.435e+08 0.0100974 -0.0414711
1.58e+08 0.00831998 -0.0571849
1.725e+08 0.00501695 -0.061751
1.87e+08 -0.006493 -0.0611166
2.015e+08 -0.00387889 -0.0696973
2.16e+08 -0.010418 -0.068734
2.305e+08 -0.00989749 -0.0779801
2.45e+08 -0.0143017 -0.0768087
2.595e+08 -0.0187236 -0.0794544
2.74e+08 -0.023261 -0.0826067
2.885e+08 -0.0260706 -0.0893729
3.03e+08 -0.0347647 -0.0909485
3.175e+08 -0.0366628 -0.0905664
3.32e+08 -0.0445675 -0.0954803
3.465e+08 -0.0451837 -0.0962238
3.61e+08 -0.049941 -0.103185
3.755e+08 -0.0578524 -0.0999111
3.9e+08 -0.0598604 -0.102499
4.045e+08 -0.0667492 -0.103954
4.19e+08 -0.0706693 -0.103226
4.335e+08 -0.0743122 -0.104807
4.48e+08 -0.0766633 -0.102109
4.625e+08 -0.0844253 -0.0993328
4.77e+08 -0.0921232 -0.101341
4.915e+08 -0.0968983 -0.104549
5.06e+08 -0.098218 -0.103658
5.205e+08 -0.0978601 -0.0957694
5.35e+08 -0.101726 -0.101204
5.495e+08 -0.114255 -0.101345
5.64e+08 -0.111357 -0.0965142
5.785e+08 -0.120793 -0.0996999
5.93e+08 -0.120166 -0.0989495
6.075e+08 -0.130813 -0.0962103
6.22e+08 -0.128513 -0.0937219
6.365e+08 -0.133682 -0.0939062
6.51e+08 -0.133784 -0.0870691
6.655e+08 -0.139843 -0.0849136
6.8e+08 -0.137166 -0.0871569
6.945e+08 -0.146128 -0.081078
7.09e+08 -0.146707 -0.0859166
7.235e+08 -0.150647 -0.0801281
7.38e+08 -0.150427 -0.0754181
7.525e+08 -0.157691 -0.0724328
7.67e+08 -0.159663 -0.0742752
7.815e+08 -0.160469 -0.0694058
7.96e+08 -0.165592 -0.0707977
8.105e+08 -0.166886 -0.0646268
8.25e+08 -0.166272 -0.0635877
8.395e+08 -0.171171 -0.0606844
8.54e+08 -0.172765 -0.0598748
8.685e+08 -0.175362 -0.0567079
8.83e+08 -0.177258 -0.0531621
8.975e+08 -0.17763 -0.053542
9.12e+08 -0.184044 -0.0503675
9.265e+08 -0.184727 -0.0451432
9.41e+08 -0.187556 -0.0443758
9.555e+08 -0.188601 -0.0421472
9.7e+08 -0.191801 -0.0417338
9.845e+08 -0.192532 -0.0401323
9.99e+08 -0.190565 -0.0345509
1.0135e+09 -0.194691 -0.0310024
1.028e+09 -0.197578 -0.0279611
1.0425e+09 -0.199761 -0.0274975
1.057e+09 -0.201173 -0.0249375
1.0715e+09 -0.20277 -0.0249546
1.086e+09 -0.204269 -0.0192851
1.1005e+09 -0.207209 -0.0153827
1.115e+09 -0.206187 -0.0142764
1.1295e+09 -0.209582 -0.00888661
1.144e+09 -0.213897 -0.00701384
1.1585e+09 -0.210995 -0.00491027
1.173e+09 -0.214374 -0.00138659
1.1875e+09 -0.210061 0.00162758
1.202e+09 -0.214032 0.00489427
1.2165e+09 -0.216317 0.0132283
1.231e+09 -0.217848 0.0151728
1.2455e+09 -0.215848 0.0188205
1.26e+09 -0.21656 0.0183796
1.2745e+09 -0.213919 0.0229729
1.289e+09 -0.215932 0.0322206
1.3035e+09 -0.217744 0.0335554
1.318e+09 -0.218816 0.0372382
1.3325e+09 -0.214813 0.0408271
1.347e+09 -0.216454 0.0430218
1.3615e+09 -0.21529 0.0463137
1.376e+09 -0.21401 0.0525841
1.3905e+09 -0.212858 0.0544778
1.405e+09 -0.216663 0.059591
1.4195e+09 -0.214571 0.0591719
1.434e+09 -0.211069 0.0625386
1.4485e+09 -0.209742 0.0661703
1.463e+09 -0.211238 0.0698061
1.4775e+09 -0.207798 0.0705858
1.492e+09 -0.20936 0.07739
1.5065e+09 -0.20707 0.0784575
1.521e+09 -0.204572 0.0791584
1.5355e+09 -0.20247 0.0825891
1.55e+09 -0.202475 0.0844756
1.5645e+09 -0.20076 0.0893031
1.579e+09 -0.202352 0.0949073
1.5935e+09 -0.199738 0.0953303
1.608e+09 -0.201002 0.0991725
1.6225e+09 -0.195812 0.0985032
1.637e+09 -0.194331 0.102365
1.6515e+09 -0.1915 0.105953
1.666e+09 -0.188767 0.107424
1.6805e+09 -0.187237 0.109572
1.695e+09 -0.18791 0.107864
1.7095e+09 -0.183509 0.111459
1.724e+09 -0.181266 0.113928
1.7385e+09 -0.181675 0.114925
1.753e+09 -0.180929 0.117936
1.7675e+09 -0.181382 0.118554
1.782e+09 -0.177705 0.117288
1.7965e+09 -0.179077 0.120456
1.811e+09 -0.173093 0.11869
1.8255e+09 -0.170678 0.121336
1.84e+09 -0.170513 0.128331
1.8545e+09 -0.171193 0.129229
1.869e+09 -0.167376 0.129399
1.8835e+09 -0.169044 0.12725
1.898e+09 -0.164809 0.130722
1.9125e+09 -0.16046 0.131461
1.927e+09 -0.159405 0.134165
1.9415e+09 -0.158259 0.137396
1.956e+09 -0.161053 0.137964
1.9705e+09 -0.156475 0.135366
1.985e+09 -0.154675 0.134809
1.9995e+09 -0.150735 0.140915
2.014e+09 -0.148385 0.143574
2.0285e+09 -0.149247 0.144043
2.043e+09 -0.144821 0.143235
2.0575e+09 -0.149816 0.142756
2.072e+09 -0.143892 0.143855
2.0865e+09 -0.140344 0.146844
2.101e+09 -0.139079 0.147415
2.1155e+09 -0.139551 0.150368
2.13e+09 -0.136594 0.149937
2.1445e+09 -0.135393 0.149955
2.159e+09 -0.13288 0.147053
2.1735e+09 -0.13007 0.149878
2.188e+09 -0.12905 0.153249
2.2025e+09 -0.128339 0.157228
2.217e+09 -0.12594 0.15705
2.2315e+09 -0.124654 0.15587
2.246e+09 -0.122132 0.153305
2.2605e+09 -0.119104 0.157452
2.275e+09 -0.119268 0.16154
2.2895e+09 -0.118783 0.162549
2.304e+09 -0.114943 0.159576
2.3185e+09 -0.117562 0.157856
2.333e+09 -0.113668 0.158463
2.3475e+09 -0.110783 0.157294
2.362e+09 -0.106967 0.161389
2.3765e+09 -0.105922 0.163506
2.391e+09 -0.107012 0.163852
2.4055e+09 -0.106657 0.163774
2.42e+09 -0.096995 0.158382
2.4345e+09 -0.100654 0.158799
2.449e+09 -0.097105 0.162497
2.4635e+09 -0.0966149 0.167703
2.478e+09 -0.0946358 0.164168
2.4925e+09 -0.0952897 0.163082
2.507e+09 -0.0954343 0.15978
2.5215e+09 -0.087916 0.161419
2.536e+09 -0.0835854 0.163574
2.5505e+09 -0.0856169 0.164432
2.565e+09 -0.0857626 0.164864
2.5795e+09 -0.0836359 0.16258
2.594e+09 -0.0860232 0.161865
2.6085e+09 -0.0775495 0.160059
2.623e+09 -0.0801821 0.159252
2.6375e+09 -0.0744881 0.166083
2.652e+09 -0.0767556 0.165779
2.6665e+09 -0.075203 0.163941
2.681e+09 -0.076702 0.161422
2.6955e+09 -0.071953 0.152486
2.71e+09 -0.0704864 0.156054
2.7245e+09 -0.0684765 0.15856
2.739e+09 -0.0662354 0.157872
2.7535e+09 -0.0689827 0.160668
2.768e+09 -0.0652855 0.156409
2.7825e+09 -0.0630152 0.154243
2.797e+09 -0.0651656 0.153736
2.8115e+09 -0.0589541 0.155693
2.826e+09 -0.0617028 0.155117
2.8405e+09 -0.0595324 0.152561
2.855e+09 -0.061198 0.151473
2.8695e+09 -0.0594361 0.149573
2.884e+09 -0.0588424 0.150373
2.8985e+09 -0.0571673 0.147955
2.913e+09 -0.0558088 0.146621
2.9275e+09 -0.0574791 0.149691
2.942e+09 -0.0579857 0.14556
2.9565e+09 -0.0577708 0.145219
2.971e+09 -0.0519596 0.141666
2.9855e+09 -0.0559124 0.143049
3e+09 -0.0544228 0.144299

