
! 1-port S-parameter data taken at 201 frequency points
! Created by R&S SxP Library version 0.2.0 at 17-11-2023 15:28:11

# Hz S RI R 50


2e+06 0.00704452 0.000343818
1.699e+07 0.0277564 -0.0120139
3.198e+07 0.017736 -0.0098812
4.697e+07 0.0125779 -0.0169021
6.196e+07 0.0233516 -0.0181013
7.695e+07 0.0219629 -0.0198871
9.194e+07 0.0199735 -0.0295204
1.0693e+08 0.0175717 -0.0329214
1.2192e+08 0.0131134 -0.0351267
1.3691e+08 0.0103008 -0.0399414
1.519e+08 0.005995 -0.0389278
1.6689e+08 0.0059151 -0.0500553
1.8188e+08 -0.00446786 -0.0561293
1.9687e+08 -0.0161992 -0.0562127
2.1186e+08 -0.016561 -0.0666532
2.2685e+08 -0.0156753 -0.0688677
2.4184e+08 -0.023696 -0.0675672
2.5683e+08 -0.0291773 -0.0749706
2.7182e+08 -0.0362182 -0.0699922
2.8681e+08 -0.0333725 -0.0748775
3.018e+08 -0.0419644 -0.0747063
3.1679e+08 -0.0514806 -0.0727223
3.3178e+08 -0.0566322 -0.0795865
3.4677e+08 -0.058666 -0.0774926
3.6176e+08 -0.0662914 -0.081038
3.7675e+08 -0.0712991 -0.0791256
3.9174e+08 -0.0788588 -0.0732521
4.0673e+08 -0.0891459 -0.0790354
4.2172e+08 -0.0942356 -0.0695255
4.3671e+08 -0.0910614 -0.0737431
4.517e+08 -0.102001 -0.0701628
4.6669e+08 -0.109681 -0.0639155
4.8168e+08 -0.121295 -0.0668024
4.9667e+08 -0.123282 -0.0655343
5.1166e+08 -0.126571 -0.0518703
5.2665e+08 -0.12786 -0.0532063
5.4164e+08 -0.139033 -0.0509837
5.5663e+08 -0.141778 -0.0471317
5.7162e+08 -0.14771 -0.0433442
5.8661e+08 -0.148711 -0.0411988
6.016e+08 -0.164173 -0.0271139
6.1659e+08 -0.15177 -0.0286457
6.3158e+08 -0.169399 -0.0195565
6.4657e+08 -0.16633 -0.0107863
6.6156e+08 -0.170746 -0.00457879
6.7655e+08 -0.170437 -0.00377054
6.9154e+08 -0.17125 0.00603871
7.0653e+08 -0.178005 0.0152547
7.2152e+08 -0.182765 0.0209997
7.3651e+08 -0.184375 0.0296074
7.515e+08 -0.185104 0.0345119
7.6649e+08 -0.180429 0.0387707
7.8148e+08 -0.182808 0.048024
7.9647e+08 -0.183671 0.0586065
8.1146e+08 -0.182034 0.0650005
8.2645e+08 -0.185321 0.0756651
8.4144e+08 -0.184357 0.0818014
8.5643e+08 -0.18335 0.0874579
8.7142e+08 -0.181186 0.0929471
8.8641e+08 -0.176704 0.102174
9.014e+08 -0.172957 0.108165
9.1639e+08 -0.174918 0.118912
9.3138e+08 -0.169605 0.12535
9.4637e+08 -0.168601 0.133933
9.6136e+08 -0.163612 0.14063
9.7635e+08 -0.15966 0.149344
9.9134e+08 -0.152035 0.154188
1.00633e+09 -0.148328 0.160074
1.02132e+09 -0.142811 0.170366
1.03631e+09 -0.138584 0.175225
1.0513e+09 -0.135171 0.178513
1.06629e+09 -0.13023 0.187989
1.08128e+09 -0.119586 0.18778
1.09627e+09 -0.116585 0.193401
1.11126e+09 -0.10784 0.205286
1.12625e+09 -0.0991242 0.205804
1.14124e+09 -0.0963007 0.21139
1.15623e+09 -0.0847426 0.216717
1.17122e+09 -0.0787187 0.217436
1.18621e+09 -0.071223 0.220671
1.2012e+09 -0.0609505 0.224604
1.21619e+09 -0.0498033 0.227156
1.23118e+09 -0.0417965 0.229781
1.24617e+09 -0.0336865 0.232897
1.26116e+09 -0.0272206 0.234264
1.27615e+09 -0.0199935 0.230366
1.29114e+09 -0.00845233 0.230718
1.30613e+09 0.0030977 0.229281
1.32112e+09 0.0139909 0.229493
1.33611e+09 0.0211282 0.224709
1.3511e+09 0.0271139 0.232463
1.36609e+09 0.0380255 0.230729
1.38108e+09 0.0445047 0.222203
1.39607e+09 0.0535477 0.219563
1.41106e+09 0.0662547 0.214863
1.42605e+09 0.0731672 0.210138
1.44104e+09 0.0798496 0.209855
1.45603e+09 0.0905382 0.21087
1.47102e+09 0.0926233 0.202317
1.48601e+09 0.0971004 0.197473
1.501e+09 0.105234 0.189029
1.51599e+09 0.11309 0.187552
1.53098e+09 0.124682 0.178651
1.54597e+09 0.128207 0.17385
1.56096e+09 0.131584 0.167337
1.57595e+09 0.13483 0.162954
1.59094e+09 0.138311 0.153939
1.60593e+09 0.146991 0.147047
1.62092e+09 0.148886 0.141087
1.63591e+09 0.152707 0.129384
1.6509e+09 0.160116 0.127933
1.66589e+09 0.161669 0.120055
1.68088e+09 0.167331 0.113557
1.69587e+09 0.170115 0.102736
1.71086e+09 0.168571 0.094532
1.72585e+09 0.168999 0.0848132
1.74084e+09 0.169944 0.0769868
1.75583e+09 0.172636 0.0744851
1.77082e+09 0.179317 0.0648661
1.78581e+09 0.174349 0.0595612
1.8008e+09 0.173907 0.0505579
1.81579e+09 0.170219 0.0405412
1.83078e+09 0.168954 0.0324164
1.84577e+09 0.172315 0.0239624
1.86076e+09 0.16958 0.0155177
1.87575e+09 0.169876 0.0119512
1.89074e+09 0.170035 0.00327809
1.90573e+09 0.16 -0.00427051
1.92072e+09 0.155628 -0.00607678
1.93571e+09 0.153195 -0.0165229
1.9507e+09 0.154848 -0.0242221
1.96569e+09 0.152716 -0.0324616
1.98068e+09 0.144561 -0.0357258
1.99567e+09 0.143392 -0.0401617
2.01066e+09 0.136301 -0.0436237
2.02565e+09 0.131712 -0.0532242
2.04064e+09 0.124047 -0.0617803
2.05563e+09 0.123809 -0.0641357
2.07062e+09 0.117527 -0.065621
2.08561e+09 0.113619 -0.0701785
2.1006e+09 0.111444 -0.0687633
2.11559e+09 0.104392 -0.0755337
2.13058e+09 0.100464 -0.0806114
2.14557e+09 0.0953913 -0.0815693
2.16056e+09 0.0906687 -0.0873942
2.17555e+09 0.0813962 -0.0919061
2.19054e+09 0.0852529 -0.0888539
2.20553e+09 0.0776458 -0.0929238
2.22052e+09 0.0715064 -0.092211
2.23551e+09 0.0669159 -0.0934914
2.2505e+09 0.060429 -0.097289
2.26549e+09 0.0528088 -0.104426
2.28048e+09 0.0480524 -0.100119
2.29547e+09 0.0503329 -0.103813
2.31046e+09 0.0463856 -0.103575
2.32545e+09 0.0402215 -0.105651
2.34044e+09 0.0316553 -0.106582
2.35543e+09 0.0254419 -0.110286
2.37042e+09 0.0212033 -0.111279
2.38541e+09 0.0216489 -0.112309
2.4004e+09 0.0185868 -0.110013
2.41539e+09 0.0144427 -0.111176
2.43038e+09 0.00208253 -0.10897
2.44537e+09 -0.000882706 -0.111103
2.46036e+09 -0.00307451 -0.11077
2.47535e+09 -0.0128077 -0.112816
2.49034e+09 -0.00949694 -0.11021
2.50533e+09 -0.0128508 -0.114239
2.52032e+09 -0.0149532 -0.10983
2.53531e+09 -0.0194442 -0.105194
2.5503e+09 -0.0277904 -0.104618
2.56529e+09 -0.0288079 -0.109072
2.58028e+09 -0.0346223 -0.108309
2.59527e+09 -0.0396979 -0.108193
2.61026e+09 -0.0406798 -0.108838
2.62525e+09 -0.044735 -0.107714
2.64024e+09 -0.0480097 -0.10074
2.65523e+09 -0.0533669 -0.102962
2.67022e+09 -0.052577 -0.101163
2.68521e+09 -0.0599707 -0.105622
2.7002e+09 -0.0644093 -0.10207
2.71519e+09 -0.05896 -0.0981283
2.73018e+09 -0.063466 -0.10543
2.74517e+09 -0.0682526 -0.101528
2.76016e+09 -0.0746667 -0.0995395
2.77515e+09 -0.0791651 -0.0931851
2.79014e+09 -0.0845822 -0.0956121
2.80513e+09 -0.0854992 -0.0980459
2.82012e+09 -0.0843704 -0.0976114
2.83511e+09 -0.0864189 -0.0990052
2.8501e+09 -0.0900688 -0.0961363
2.86509e+09 -0.0946516 -0.0913973
2.88008e+09 -0.100484 -0.0914895
2.89507e+09 -0.10091 -0.0886326
2.91006e+09 -0.1074 -0.0916389
2.92505e+09 -0.109243 -0.0938032
2.94004e+09 -0.109865 -0.0906712
2.95503e+09 -0.113261 -0.0852806
2.97002e+09 -0.116982 -0.0849057
2.98501e+09 -0.121447 -0.0858118
3e+09 -0.12288 -0.0896764

