
! 1-port S-parameter data taken at 201 frequency points
! Created by R&S SxP Library version 0.2.0 at 17-11-2023 15:25:51

# Hz S RI R 50


2e+06 0.00906872 0.00210692
1.699e+07 0.02801 -0.00856155
3.198e+07 0.0182426 -0.00477049
4.697e+07 0.0125899 -0.00928606
6.196e+07 0.0232268 -0.00608521
7.695e+07 0.0242129 -0.00332961
9.194e+07 0.0256226 -0.0118649
1.0693e+08 0.0268985 -0.0183547
1.2192e+08 0.0243058 -0.0166587
1.3691e+08 0.022919 -0.018054
1.519e+08 0.0191194 -0.0188441
1.6689e+08 0.0201963 -0.0277022
1.8188e+08 0.00820018 -0.0251941
1.9687e+08 0.0015747 -0.030072
2.1186e+08 0.00641119 -0.0335517
2.2685e+08 0.00466283 -0.0341374
2.4184e+08 -0.00177418 -0.0367347
2.5683e+08 -0.000952317 -0.0362863
2.7182e+08 -0.00505601 -0.0354787
2.8681e+08 -0.00181448 -0.035224
3.018e+08 -9.63075e-05 -0.0349787
3.1679e+08 -0.00595797 -0.0377387
3.3178e+08 -0.00792374 -0.0383653
3.4677e+08 -0.0100706 -0.0375288
3.6176e+08 -0.0149808 -0.0393332
3.7675e+08 -0.0155993 -0.0414933
3.9174e+08 -0.0216332 -0.0405908
4.0673e+08 -0.0242281 -0.0402751
4.2172e+08 -0.0264136 -0.0351858
4.3671e+08 -0.0250578 -0.0411999
4.517e+08 -0.030709 -0.0382001
4.6669e+08 -0.0365693 -0.0365923
4.8168e+08 -0.0401061 -0.0432438
4.9667e+08 -0.0427926 -0.0414691
5.1166e+08 -0.037214 -0.0278483
5.2665e+08 -0.0334088 -0.028593
5.4164e+08 -0.0464196 -0.0331663
5.5663e+08 -0.0481452 -0.0327082
5.7162e+08 -0.0495366 -0.030429
5.8661e+08 -0.0447563 -0.0321703
6.016e+08 -0.0592017 -0.0225814
6.1659e+08 -0.0423793 -0.0261921
6.3158e+08 -0.059895 -0.0251879
6.4657e+08 -0.0550651 -0.0159247
6.6156e+08 -0.0558554 -0.0150373
6.7655e+08 -0.0471007 -0.0190672
6.9154e+08 -0.0516254 -0.0136374
7.0653e+08 -0.0561612 -0.00856405
7.2152e+08 -0.0594108 -0.0175367
7.3651e+08 -0.0582564 -0.00397144
7.515e+08 -0.0584073 -0.00512697
7.6649e+08 -0.0510014 -0.00654922
7.8148e+08 -0.0558127 -0.00372466
7.9647e+08 -0.0540452 0.00362694
8.1146e+08 -0.0536383 0.00387034
8.2645e+08 -0.0533231 0.00934802
8.4144e+08 -0.0531906 0.00699026
8.5643e+08 -0.0497069 0.00640225
8.7142e+08 -0.0538452 0.00633334
8.8641e+08 -0.0486206 0.0129953
9.014e+08 -0.043721 0.0112494
9.1639e+08 -0.0486643 0.0106237
9.3138e+08 -0.0457473 0.0163298
9.4637e+08 -0.043785 0.0166248
9.6136e+08 -0.0414639 0.0180572
9.7635e+08 -0.0405802 0.0212202
9.9134e+08 -0.0382612 0.01763
1.00633e+09 -0.0355799 0.020876
1.02132e+09 -0.033935 0.0228495
1.03631e+09 -0.0311867 0.0200662
1.0513e+09 -0.032222 0.0217225
1.06629e+09 -0.031416 0.0233075
1.08128e+09 -0.0291735 0.0212216
1.09627e+09 -0.0267679 0.0208621
1.11126e+09 -0.0234015 0.0230382
1.12625e+09 -0.0217835 0.0207016
1.14124e+09 -0.0251053 0.0203213
1.15623e+09 -0.0194211 0.026459
1.17122e+09 -0.0207908 0.0195792
1.18621e+09 -0.0181918 0.0176416
1.2012e+09 -0.01525 0.0165747
1.21619e+09 -0.00876895 0.0140417
1.23118e+09 -0.00682609 0.0167375
1.24617e+09 -0.0095426 0.0210566
1.26116e+09 -0.0100458 0.014201
1.27615e+09 -0.0104139 0.0118259
1.29114e+09 -0.00962237 0.00420703
1.30613e+09 -0.005818 0.00607542
1.32112e+09 -0.00226406 0.00657734
1.33611e+09 -0.00333967 0.00492863
1.3511e+09 -0.00480967 0.00554549
1.36609e+09 -0.00498293 0.00333458
1.38108e+09 -0.00574185 -0.00155812
1.39607e+09 -0.00641197 -0.0029497
1.41106e+09 -0.00201514 -0.00558237
1.42605e+09 -0.000165721 -0.0080578
1.44104e+09 0.000363207 -0.00754174
1.45603e+09 -0.000976942 -0.00669494
1.47102e+09 -0.00443329 -0.011485
1.48601e+09 -0.00596458 -0.0118619
1.501e+09 -0.00958411 -0.0165282
1.51599e+09 -0.0086423 -0.0129692
1.53098e+09 -0.00717819 -0.019413
1.54597e+09 -0.00487736 -0.0173827
1.56096e+09 -0.00795956 -0.0216883
1.57595e+09 -0.00922081 -0.0212609
1.59094e+09 -0.0103982 -0.0205343
1.60593e+09 -0.0128478 -0.0291655
1.62092e+09 -0.0156493 -0.027166
1.63591e+09 -0.0183143 -0.0317148
1.6509e+09 -0.0167958 -0.030813
1.66589e+09 -0.021233 -0.0302553
1.68088e+09 -0.0206156 -0.0307988
1.69587e+09 -0.0218401 -0.0321677
1.71086e+09 -0.0278064 -0.0322565
1.72585e+09 -0.0284102 -0.034925
1.74084e+09 -0.0291314 -0.0375648
1.75583e+09 -0.0277086 -0.0353195
1.77082e+09 -0.0267079 -0.031309
1.78581e+09 -0.0334079 -0.0295155
1.8008e+09 -0.0405245 -0.0319756
1.81579e+09 -0.042582 -0.0338599
1.83078e+09 -0.0432674 -0.0373835
1.84577e+09 -0.0410759 -0.0391541
1.86076e+09 -0.0440918 -0.0391633
1.87575e+09 -0.0438164 -0.0337121
1.89074e+09 -0.0458541 -0.0309958
1.90573e+09 -0.0526377 -0.0317132
1.92072e+09 -0.0551871 -0.0332363
1.93571e+09 -0.0582239 -0.0336518
1.9507e+09 -0.0575196 -0.0346059
1.96569e+09 -0.0555921 -0.0300344
1.98068e+09 -0.0597742 -0.0282651
1.99567e+09 -0.0624373 -0.0259308
2.01066e+09 -0.0659972 -0.0232852
2.02565e+09 -0.0694987 -0.0259256
2.04064e+09 -0.0673021 -0.026131
2.05563e+09 -0.0687778 -0.0278526
2.07062e+09 -0.0718205 -0.0218327
2.08561e+09 -0.0730451 -0.0236876
2.1006e+09 -0.0708934 -0.0175458
2.11559e+09 -0.076736 -0.0144206
2.13058e+09 -0.0751118 -0.0140994
2.14557e+09 -0.0744909 -0.0095749
2.16056e+09 -0.0763122 -0.0188653
2.17555e+09 -0.0813523 -0.0190517
2.19054e+09 -0.0799945 -0.00915671
2.20553e+09 -0.080105 -0.00889174
2.22052e+09 -0.078944 -0.00561604
2.23551e+09 -0.0830727 2.45572e-05
2.2505e+09 -0.0872631 -0.00650664
2.26549e+09 -0.0866507 -0.00293703
2.28048e+09 -0.0856781 6.21319e-05
2.29547e+09 -0.0849151 -0.000128381
2.31046e+09 -0.0822311 0.00401021
2.32545e+09 -0.0826483 0.0113752
2.34044e+09 -0.0836862 0.0115282
2.35543e+09 -0.0874991 0.0127075
2.37042e+09 -0.0878119 0.00858097
2.38541e+09 -0.081342 0.00866623
2.4004e+09 -0.0808013 0.013496
2.41539e+09 -0.0811117 0.0188066
2.43038e+09 -0.0877669 0.0183118
2.44537e+09 -0.0859742 0.0215684
2.46036e+09 -0.0883179 0.0206429
2.47535e+09 -0.0883511 0.0183128
2.49034e+09 -0.0820132 0.020739
2.50533e+09 -0.0811682 0.0182506
2.52032e+09 -0.078408 0.025179
2.53531e+09 -0.0827426 0.0254329
2.5503e+09 -0.0834112 0.0273967
2.56529e+09 -0.084722 0.0271514
2.58028e+09 -0.0838685 0.0294307
2.59527e+09 -0.0836943 0.031441
2.61026e+09 -0.079598 0.0314207
2.62525e+09 -0.0816215 0.033393
2.64024e+09 -0.0815981 0.0371588
2.65523e+09 -0.0806596 0.035729
2.67022e+09 -0.0762932 0.0387025
2.68521e+09 -0.0815568 0.0333295
2.7002e+09 -0.0825957 0.0388181
2.71519e+09 -0.0791211 0.0371441
2.73018e+09 -0.0766276 0.0334981
2.74517e+09 -0.074702 0.0388117
2.76016e+09 -0.0789117 0.0402856
2.77515e+09 -0.0757356 0.0501105
2.79014e+09 -0.077176 0.0447023
2.80513e+09 -0.0808179 0.0433801
2.82012e+09 -0.0776757 0.0442922
2.83511e+09 -0.0761732 0.0429824
2.8501e+09 -0.0698958 0.0443073
2.86509e+09 -0.069353 0.0495769
2.88008e+09 -0.072837 0.0528204
2.89507e+09 -0.0741918 0.0502566
2.91006e+09 -0.073648 0.0497055
2.92505e+09 -0.0714767 0.0471105
2.94004e+09 -0.0690582 0.0492414
2.95503e+09 -0.0669656 0.0534693
2.97002e+09 -0.0658716 0.0537496
2.98501e+09 -0.0706815 0.050703
3e+09 -0.0693487 0.0530277

