
! 1-port S-parameter data taken at 201 frequency points
! Created by R&S SxP Library version 0.2.0 at 08-12-2023 12:05:56

# Hz S RI R 50


2e+06 0.0131101 -0.00294263
1.699e+07 0.0282206 -0.00848169
3.198e+07 0.0153784 -0.00443966
4.697e+07 0.0103687 -0.00968213
6.196e+07 0.0206438 -0.00986901
7.695e+07 0.0234385 -0.00555961
9.194e+07 0.0235795 -0.0136711
1.0693e+08 0.0252872 -0.0214145
1.2192e+08 0.0236976 -0.0192045
1.3691e+08 0.0204596 -0.0206846
1.519e+08 0.0172726 -0.0231908
1.6689e+08 0.0152194 -0.0323922
1.8188e+08 0.00813148 -0.0282034
1.9687e+08 -0.00178181 -0.0313768
2.1186e+08 0.00485701 -0.0378288
2.2685e+08 -0.0023081 -0.0343234
2.4184e+08 -0.00501955 -0.0393079
2.5683e+08 -0.0036419 -0.039377
2.7182e+08 -0.00884882 -0.039356
2.8681e+08 -0.00242958 -0.0422065
3.018e+08 -0.00796451 -0.0415932
3.1679e+08 -0.0103027 -0.0468172
3.3178e+08 -0.0147226 -0.0405606
3.4677e+08 -0.0168648 -0.0415248
3.6176e+08 -0.0223264 -0.0473156
3.7675e+08 -0.0257593 -0.0401069
3.9174e+08 -0.0330558 -0.0398022
4.0673e+08 -0.0380542 -0.0472528
4.2172e+08 -0.0351463 -0.0375519
4.3671e+08 -0.0338043 -0.0433081
4.517e+08 -0.0319908 -0.0368003
4.6669e+08 -0.0420036 -0.0370274
4.8168e+08 -0.0456361 -0.0347236
4.9667e+08 -0.0523012 -0.0427634
5.1166e+08 -0.0436205 -0.0321394
5.2665e+08 -0.040598 -0.0317834
5.4164e+08 -0.0487636 -0.0292728
5.5663e+08 -0.0581095 -0.0357864
5.7162e+08 -0.0582029 -0.0290464
5.8661e+08 -0.0524661 -0.0313207
6.016e+08 -0.0606561 -0.0224413
6.1659e+08 -0.0591531 -0.0304205
6.3158e+08 -0.0630022 -0.0193753
6.4657e+08 -0.0619872 -0.0168612
6.6156e+08 -0.0578303 -0.0143562
6.7655e+08 -0.0560405 -0.0173162
6.9154e+08 -0.0547524 -0.00973238
7.0653e+08 -0.063074 -0.00902839
7.2152e+08 -0.0620619 -0.00391517
7.3651e+08 -0.0593303 -0.00438498
7.515e+08 -0.0601697 -0.000421138
7.6649e+08 -0.0594955 -0.00173322
7.8148e+08 -0.0549868 0.00242733
7.9647e+08 -0.0571506 0.00718179
8.1146e+08 -0.0571344 0.00465169
8.2645e+08 -0.054772 0.00874499
8.4144e+08 -0.054955 0.0107466
8.5643e+08 -0.0551219 0.0110239
8.7142e+08 -0.0481658 0.0106529
8.8641e+08 -0.0489583 0.0166321
9.014e+08 -0.0487986 0.0123335
9.1639e+08 -0.0523446 0.0151433
9.3138e+08 -0.047706 0.0161796
9.4637e+08 -0.0454551 0.0162008
9.6136e+08 -0.0479238 0.0197957
9.7635e+08 -0.0419251 0.0197068
9.9134e+08 -0.0396957 0.0178347
1.00633e+09 -0.0376482 0.0207461
1.02132e+09 -0.0359902 0.0199213
1.03631e+09 -0.0352506 0.0202658
1.0513e+09 -0.0330161 0.0202885
1.06629e+09 -0.0338191 0.018763
1.08128e+09 -0.0290709 0.0195655
1.09627e+09 -0.0280684 0.0191444
1.11126e+09 -0.0261982 0.0170568
1.12625e+09 -0.0238863 0.0193398
1.14124e+09 -0.0229772 0.0162817
1.15623e+09 -0.0195208 0.0154418
1.17122e+09 -0.0195406 0.0165835
1.18621e+09 -0.0194273 0.0132553
1.2012e+09 -0.0195095 0.0102956
1.21619e+09 -0.0170135 0.0125702
1.23118e+09 -0.0142628 0.00771221
1.24617e+09 -0.0134196 0.00820447
1.26116e+09 -0.0145033 0.0104366
1.27615e+09 -0.00994609 0.00199522
1.29114e+09 -0.0139355 0.00218224
1.30613e+09 -0.0138742 -0.00217605
1.32112e+09 -0.0132422 -0.00211258
1.33611e+09 -0.0107321 -0.00301283
1.3511e+09 -0.0144871 -0.00463845
1.36609e+09 -0.011519 -0.00884486
1.38108e+09 -0.0169586 -0.0105471
1.39607e+09 -0.0153594 -0.0125483
1.41106e+09 -0.0149643 -0.0136251
1.42605e+09 -0.0184661 -0.0149555
1.44104e+09 -0.0172383 -0.0190864
1.45603e+09 -0.0209438 -0.0172588
1.47102e+09 -0.017892 -0.0195063
1.48601e+09 -0.0211038 -0.0173781
1.501e+09 -0.0223951 -0.0235435
1.51599e+09 -0.0284819 -0.0264481
1.53098e+09 -0.0251612 -0.0320889
1.54597e+09 -0.0294564 -0.0273663
1.56096e+09 -0.0268651 -0.0267213
1.57595e+09 -0.03086 -0.0290405
1.59094e+09 -0.0334578 -0.030013
1.60593e+09 -0.0350082 -0.0311519
1.62092e+09 -0.0376655 -0.0285581
1.63591e+09 -0.0408263 -0.0321966
1.6509e+09 -0.0430765 -0.0342309
1.66589e+09 -0.0426496 -0.0365077
1.68088e+09 -0.0474023 -0.0320262
1.69587e+09 -0.0473271 -0.0314738
1.71086e+09 -0.050533 -0.0367657
1.72585e+09 -0.0539472 -0.0320245
1.74084e+09 -0.0593069 -0.0341792
1.75583e+09 -0.0569826 -0.0335689
1.77082e+09 -0.0600876 -0.0315344
1.78581e+09 -0.0643656 -0.0322881
1.8008e+09 -0.0640455 -0.0326758
1.81579e+09 -0.0659379 -0.0285025
1.83078e+09 -0.0649817 -0.0268658
1.84577e+09 -0.0695877 -0.0255532
1.86076e+09 -0.0724329 -0.0248476
1.87575e+09 -0.0741382 -0.0243098
1.89074e+09 -0.0761728 -0.0230046
1.90573e+09 -0.0789698 -0.0193843
1.92072e+09 -0.0821983 -0.0179753
1.93571e+09 -0.0807982 -0.0171935
1.9507e+09 -0.0831301 -0.0141846
1.96569e+09 -0.0842092 -0.0126338
1.98068e+09 -0.0830178 -0.0101918
1.99567e+09 -0.0885699 -0.00762749
2.01066e+09 -0.0878728 -0.00948047
2.02565e+09 -0.0881608 -0.00761996
2.04064e+09 -0.0909508 -0.00633682
2.05563e+09 -0.0920459 -0.00332331
2.07062e+09 -0.0926622 0.00033174
2.08561e+09 -0.0928767 0.00428774
2.1006e+09 -0.0928623 0.00435235
2.11559e+09 -0.0950142 0.00395879
2.13058e+09 -0.0954478 0.00832204
2.14557e+09 -0.093259 0.0102322
2.16056e+09 -0.0900806 0.0141093
2.17555e+09 -0.0947022 0.01599
2.19054e+09 -0.0942873 0.0183983
2.20553e+09 -0.0933251 0.0174373
2.22052e+09 -0.0959879 0.0212871
2.23551e+09 -0.0964284 0.0236775
2.2505e+09 -0.0925164 0.0226525
2.26549e+09 -0.0959809 0.0246755
2.28048e+09 -0.0913169 0.0279058
2.29547e+09 -0.0930141 0.0314122
2.31046e+09 -0.0910052 0.0323167
2.32545e+09 -0.0902805 0.0343322
2.34044e+09 -0.0918662 0.036846
2.35543e+09 -0.0890801 0.0368701
2.37042e+09 -0.0888243 0.0408394
2.38541e+09 -0.0870588 0.0412132
2.4004e+09 -0.089702 0.0458286
2.41539e+09 -0.0889515 0.0444465
2.43038e+09 -0.0871078 0.0462999
2.44537e+09 -0.0853685 0.0482892
2.46036e+09 -0.0826111 0.0496037
2.47535e+09 -0.0826672 0.0504903
2.49034e+09 -0.0838735 0.0520092
2.50533e+09 -0.0824328 0.0523102
2.52032e+09 -0.0799785 0.0547645
2.53531e+09 -0.0800211 0.054316
2.5503e+09 -0.0740046 0.0551158
2.56529e+09 -0.0796341 0.0539624
2.58028e+09 -0.0759434 0.0560235
2.59527e+09 -0.0761134 0.0584365
2.61026e+09 -0.0706036 0.0609509
2.62525e+09 -0.0745474 0.0619846
2.64024e+09 -0.0758348 0.0613533
2.65523e+09 -0.0711029 0.0620633
2.67022e+09 -0.0705873 0.0649306
2.68521e+09 -0.068487 0.0634828
2.7002e+09 -0.0707633 0.0635232
2.71519e+09 -0.067713 0.0626511
2.73018e+09 -0.0678052 0.0656446
2.74517e+09 -0.0672541 0.0636052
2.76016e+09 -0.0640823 0.0659885
2.77515e+09 -0.0604441 0.0658666
2.79014e+09 -0.0662514 0.0653516
2.80513e+09 -0.0610422 0.06333
2.82012e+09 -0.05873 0.0674147
2.83511e+09 -0.0592311 0.0671021
2.8501e+09 -0.0569746 0.0700197
2.86509e+09 -0.0550469 0.0688007
2.88008e+09 -0.0533756 0.0697358
2.89507e+09 -0.0536087 0.0683536
2.91006e+09 -0.0480237 0.0673216
2.92505e+09 -0.052028 0.0702538
2.94004e+09 -0.0510638 0.0665909
2.95503e+09 -0.0515457 0.0711555
2.97002e+09 -0.0460475 0.0697011
2.98501e+09 -0.0459853 0.0717576
3e+09 -0.0417018 0.0683717

