
! 1-port S-parameter data taken at 201 frequency points
! Created by R&S SxP Library version 0.2.0 at 08-12-2023 12:29:48

# Hz S RI R 50


2e+06 0.0110827 -0.00309595
1.699e+07 0.0273631 -0.0116413
3.198e+07 0.0150781 -0.00923974
4.697e+07 0.0104262 -0.0167261
6.196e+07 0.0194798 -0.0215558
7.695e+07 0.0217028 -0.0214807
9.194e+07 0.0183901 -0.0300232
1.0693e+08 0.0179413 -0.0330169
1.2192e+08 0.0154237 -0.0341315
1.3691e+08 0.0126135 -0.0381028
1.519e+08 0.00805832 -0.0403388
1.6689e+08 0.00901174 -0.0579024
1.8188e+08 0.00257876 -0.0604977
1.9687e+08 -0.00669218 -0.0642237
2.1186e+08 -0.0107302 -0.0647101
2.2685e+08 -0.0094035 -0.0712857
2.4184e+08 -0.0152323 -0.0731571
2.5683e+08 -0.0186426 -0.0809147
2.7182e+08 -0.0230563 -0.0777262
2.8681e+08 -0.0191124 -0.0829008
3.018e+08 -0.0280858 -0.08323
3.1679e+08 -0.0311471 -0.0826269
3.3178e+08 -0.0366664 -0.0859879
3.4677e+08 -0.0411037 -0.0932902
3.6176e+08 -0.0448329 -0.0944151
3.7675e+08 -0.050076 -0.0958029
3.9174e+08 -0.0561822 -0.095081
4.0673e+08 -0.0598139 -0.0959105
4.2172e+08 -0.0605268 -0.0918695
4.3671e+08 -0.0639776 -0.100885
4.517e+08 -0.0681085 -0.0955178
4.6669e+08 -0.0789332 -0.0954698
4.8168e+08 -0.0840532 -0.0961787
4.9667e+08 -0.0915556 -0.103123
5.1166e+08 -0.0860518 -0.0923821
5.2665e+08 -0.0897343 -0.0982437
5.4164e+08 -0.0989517 -0.098151
5.5663e+08 -0.103969 -0.0960878
5.7162e+08 -0.107198 -0.0962585
5.8661e+08 -0.106487 -0.0959428
6.016e+08 -0.11419 -0.08891
6.1659e+08 -0.113905 -0.0955256
6.3158e+08 -0.124797 -0.0892369
6.4657e+08 -0.121428 -0.0869963
6.6156e+08 -0.121802 -0.0827551
6.7655e+08 -0.126518 -0.0866444
6.9154e+08 -0.12691 -0.0822883
7.0653e+08 -0.136675 -0.0802647
7.2152e+08 -0.137795 -0.0780631
7.3651e+08 -0.136714 -0.0756533
7.515e+08 -0.139113 -0.073281
7.6649e+08 -0.143223 -0.0735465
7.8148e+08 -0.144248 -0.0712401
7.9647e+08 -0.149483 -0.0676858
8.1146e+08 -0.151156 -0.0699159
8.2645e+08 -0.15594 -0.0670186
8.4144e+08 -0.15247 -0.0626117
8.5643e+08 -0.157693 -0.0611119
8.7142e+08 -0.156351 -0.0599918
8.8641e+08 -0.158374 -0.0550348
9.014e+08 -0.162442 -0.057795
9.1639e+08 -0.168404 -0.0567351
9.3138e+08 -0.166486 -0.0523251
9.4637e+08 -0.166481 -0.0530468
9.6136e+08 -0.171155 -0.0475995
9.7635e+08 -0.170474 -0.0468564
9.9134e+08 -0.173177 -0.0480742
1.00633e+09 -0.175166 -0.0429992
1.02132e+09 -0.176317 -0.0403275
1.03631e+09 -0.177786 -0.039041
1.0513e+09 -0.180648 -0.0393074
1.06629e+09 -0.183619 -0.0371519
1.08128e+09 -0.182665 -0.0358507
1.09627e+09 -0.188521 -0.0337645
1.11126e+09 -0.188481 -0.0288852
1.12625e+09 -0.190417 -0.0275939
1.14124e+09 -0.19285 -0.0277178
1.15623e+09 -0.1959 -0.0253457
1.17122e+09 -0.194742 -0.0226274
1.18621e+09 -0.19863 -0.0207145
1.2012e+09 -0.199459 -0.0177649
1.21619e+09 -0.202662 -0.0138126
1.23118e+09 -0.204874 -0.01209
1.24617e+09 -0.205648 -0.00873068
1.26116e+09 -0.207836 -0.00377712
1.27615e+09 -0.203917 -0.00358922
1.29114e+09 -0.211996 0.000861949
1.30613e+09 -0.211805 0.00452177
1.32112e+09 -0.211893 0.00838042
1.33611e+09 -0.213797 0.0127968
1.3511e+09 -0.216235 0.0177824
1.36609e+09 -0.21602 0.0197248
1.38108e+09 -0.216941 0.0242507
1.39607e+09 -0.215882 0.0269647
1.41106e+09 -0.21744 0.0338194
1.42605e+09 -0.217155 0.0356028
1.44104e+09 -0.214291 0.035761
1.45603e+09 -0.218268 0.0427366
1.47102e+09 -0.215113 0.0457917
1.48601e+09 -0.212572 0.0491734
1.501e+09 -0.212436 0.0498263
1.51599e+09 -0.215323 0.0527361
1.53098e+09 -0.210739 0.0529629
1.54597e+09 -0.2122 0.0576327
1.56096e+09 -0.210315 0.063221
1.57595e+09 -0.211567 0.065006
1.59094e+09 -0.211559 0.0672567
1.60593e+09 -0.210111 0.0712004
1.62092e+09 -0.212264 0.074758
1.63591e+09 -0.21098 0.0774952
1.6509e+09 -0.208298 0.0801617
1.66589e+09 -0.206344 0.0819942
1.68088e+09 -0.208707 0.084466
1.69587e+09 -0.206033 0.0857159
1.71086e+09 -0.205735 0.0855796
1.72585e+09 -0.206024 0.0919429
1.74084e+09 -0.204045 0.093009
1.75583e+09 -0.203582 0.0960908
1.77082e+09 -0.202667 0.0988269
1.78581e+09 -0.202456 0.100963
1.8008e+09 -0.199701 0.101297
1.81579e+09 -0.204586 0.109081
1.83078e+09 -0.195676 0.107385
1.84577e+09 -0.195103 0.112451
1.86076e+09 -0.196512 0.116375
1.87575e+09 -0.193881 0.118045
1.89074e+09 -0.189238 0.118349
1.90573e+09 -0.189907 0.12225
1.92072e+09 -0.187733 0.124074
1.93571e+09 -0.184297 0.125837
1.9507e+09 -0.18488 0.129819
1.96569e+09 -0.185411 0.131989
1.98068e+09 -0.182708 0.133894
1.99567e+09 -0.185238 0.13585
2.01066e+09 -0.179495 0.134767
2.02565e+09 -0.174406 0.14004
2.04064e+09 -0.174213 0.139292
2.05563e+09 -0.170877 0.1427
2.07062e+09 -0.171604 0.146568
2.08561e+09 -0.16929 0.147475
2.1006e+09 -0.16851 0.146896
2.11559e+09 -0.164379 0.149698
2.13058e+09 -0.163796 0.151585
2.14557e+09 -0.163034 0.156476
2.16056e+09 -0.156989 0.156437
2.17555e+09 -0.156715 0.156852
2.19054e+09 -0.1539 0.156644
2.20553e+09 -0.149401 0.159397
2.22052e+09 -0.147989 0.157688
2.23551e+09 -0.144946 0.161875
2.2505e+09 -0.14642 0.161039
2.26549e+09 -0.144756 0.168093
2.28048e+09 -0.13551 0.164905
2.29547e+09 -0.136363 0.162052
2.31046e+09 -0.133964 0.165928
2.32545e+09 -0.13159 0.169906
2.34044e+09 -0.129281 0.170101
2.35543e+09 -0.126375 0.170108
2.37042e+09 -0.126867 0.16723
2.38541e+09 -0.122603 0.171639
2.4004e+09 -0.123868 0.175036
2.41539e+09 -0.119869 0.173244
2.43038e+09 -0.119808 0.172488
2.44537e+09 -0.112363 0.170433
2.46036e+09 -0.114607 0.170985
2.47535e+09 -0.109047 0.175042
2.49034e+09 -0.109728 0.175669
2.50533e+09 -0.109471 0.174309
2.52032e+09 -0.105837 0.173561
2.53531e+09 -0.105489 0.169779
2.5503e+09 -0.101753 0.169086
2.56529e+09 -0.101525 0.169232
2.58028e+09 -0.098816 0.176062
2.59527e+09 -0.0985991 0.173327
2.61026e+09 -0.097349 0.172116
2.62525e+09 -0.0977093 0.16893
2.64024e+09 -0.0953842 0.168941
2.65523e+09 -0.0912104 0.168259
2.67022e+09 -0.0894173 0.170176
2.68521e+09 -0.0880636 0.170082
2.7002e+09 -0.0904727 0.167652
2.71519e+09 -0.0880492 0.166784
2.73018e+09 -0.0852765 0.168902
2.74517e+09 -0.0838526 0.168583
2.76016e+09 -0.0828905 0.167604
2.77515e+09 -0.0809099 0.165899
2.79014e+09 -0.0840595 0.164934
2.80513e+09 -0.0821884 0.16241
2.82012e+09 -0.0803469 0.163202
2.83511e+09 -0.0784313 0.165643
2.8501e+09 -0.0779762 0.164694
2.86509e+09 -0.081304 0.168515
2.88008e+09 -0.0777537 0.162569
2.89507e+09 -0.074678 0.163325
2.91006e+09 -0.073464 0.16013
2.92505e+09 -0.074649 0.161643
2.94004e+09 -0.0740394 0.160495
2.95503e+09 -0.0778412 0.164192
2.97002e+09 -0.0729666 0.161413
2.98501e+09 -0.0727111 0.162256
3e+09 -0.0697922 0.15921

